client "example_notmp": Connected to server with 2 connection(s)
Waiting 2 seconds to initialize the Mono clock before beginning the main program
Mono clock finished synchronizing after a 2 second wait, this hardware's frequency = 2.419200152594195 GHz. Beginning main program
 >>>>>>>>>>>Polling total errors 0
Clear Errors for /components/comp_0 0
about to poll component #0, mapping #0  device_id 1
 >>>>>>>>>>>Polling total errors 0
Clear Errors for /components/comp_1 1
about to poll component #1, mapping #0  device_id 1
about to poll component #1, mapping #1  device_id 1
about to poll component #1, mapping #2  device_id 1
ERROR Illegal data address
about to poll component #1, mapping #3  device_id 1
 >>>>>>>>>>>Polling total errors 0
Clear Errors for /components/comp_2 2
 >>>>>>>>>>>Polling total errors 0
Clear Errors for /components/comp_11 3
ERROR Illegal data address
about to poll component #2, mapping #0  device_id 2
 >>>>>>>>>>>Polling total errors 0
Clear Errors for /components/comp_10 4
about to poll component #2, mapping #1  device_id 2
 >>>>>>>>>>>Polling total errors 0
Clear Errors for /components/comp_12 5
ERROR Illegal data address
about to poll component #3, mapping #0  device_id 11
ERROR Illegal data address
about to poll component #4, mapping #0  device_id 10
 >>>>>>>>>>>Polling total errors 0
Clear Errors for /components/comp_00 6
 >>>>>>>>>>>Polling total errors 0
about to poll component #4, mapping #1  device_id 10
about to poll component #4, mapping #2  device_id 10
 >>>>>>>>>>>Polling total errors 0
 >>>>>>>>>>>Polling total errors 0
Component "/components/comp_1", map array #1 had an error while polling, it is "Illegal data address"resp time 277354ns
ERROR Illegal data address
about to poll component #4, mapping #3  device_id 10
ERROR Illegal data address
about to poll component #5, mapping #0  device_id 12
 >>>>>>>>>>>Polling total errors 0
Component "/components/comp_1", map array #2 had an error while polling, it is "Illegal data address"resp time 164921ns
 >>>>>>>>>>>Polling total errors 0
about to poll component #5, mapping #1  device_id 12
about to poll component #5, mapping #2  device_id 12
 >>>>>>>>>>>Polling total errors 0
Component "/components/comp_2", map array #0 had an error while polling, it is "Illegal data address"resp time 327165ns
 >>>>>>>>>>>Polling total errors 0
Component "/components/comp_2", map array #1 had an error while polling, it is "Illegal data address"resp time 261787ns
ERROR Illegal data address
ERROR Illegal data address
about to poll component #5, mapping #3  device_id 12
about to poll component #6, mapping #0  device_id 255
 >>>>>>>>>>>Polling total errors 0
 >>>>>>>>>>>Polling total errors 0
 >>>>>>>>>>>Polling total errors 0
Component "/components/comp_10", map array #2 had an error while polling, it is "Illegal data address"resp time 242373ns
 >>>>>>>>>>>Polling total errors 0
Component "/components/comp_10", map array #1 had an error while polling, it is "Illegal data address"resp time 344999ns
 >>>>>>>>>>>Polling total errors 0
 >>>>>>>>>>>Polling total errors 0
about to poll component #0, mapping #0  device_id 1
 >>>>>>>>>>>Polling total errors 0
about to poll component #1, mapping #0  device_id 1
about to poll component #1, mapping #1  device_id 1
ERROR Illegal data address
about to poll component #1, mapping #2  device_id 1
about to poll component #1, mapping #3  device_id 1
 >>>>>>>>>>>Polling total errors 0
 >>>>>>>>>>>Polling total errors 0
ERROR Illegal data address
about to poll component #2, mapping #0  device_id 2
 >>>>>>>>>>>Polling total errors 0
 >>>>>>>>>>>Polling total errors 0
Component "/components/comp_12", map array #1 had an error while polling, it is "Illegal data address"resp time 311998ns
about to poll component #2, mapping #1  device_id 2
ERROR Illegal data address
about to poll component #3, mapping #0  device_id 11
ERROR Illegal data address
 >>>>>>>>>>>Polling total errors 0
Component "/components/comp_12", map array #2 had an error while polling, it is "Illegal data address"resp time 287275ns
 >>>>>>>>>>>Polling total errors 0
 >>>>>>>>>>>Polling total errors 0
 >>>>>>>>>>>Polling total errors 0
 >>>>>>>>>>>Polling total errors 0
about to poll component #4, mapping #0  device_id 10
about to poll component #4, mapping #1  device_id 10
about to poll component #4, mapping #2  device_id 10
ERROR Illegal data address
about to poll component #4, mapping #3  device_id 10
 >>>>>>>>>>>Polling total errors 0
 >>>>>>>>>>>Polling total errors 0
ERROR Illegal data address
about to poll component #6, mapping #0  device_id 255
about to poll component #5, mapping #0  device_id 12
 >>>>>>>>>>>Polling total errors 0
Component "/components/comp_1", map array #1 had an error while polling, it is "Illegal data address"resp time 496392ns
 >>>>>>>>>>>Polling total errors 0
[00][01][00][00][00][06][01][03][00][6D][00][01]
Waiting for a confirmation...
<00><01><00><00><00><05><01><03><02><00><00>
[00][01][00][00][00][06][01][03][00][64][00][0B]
Waiting for a confirmation...
[00][02][00][00][00][06][01][01][00][6E][00][01]
Waiting for a confirmation...
<00><01><00><00><00><19><01><03><16><00><00><00><00><00><00><00><00><00><00><00><00><00><00><00><00><00><00><00><00><00><00>
<00>[00]<02><00>[02]<00>[00][00]<00>[00]<03>[06]<01><81>[01][02][00][6F][00][01]
<02>
[00][03][00][00][00][06][01][04][00][6D][00][01]
Waiting for a confirmation...
Waiting for a confirmation...
<00><02><00><00><00><03><01><82><02>
[00][03][00][00][00][06][02][01][00][6E][00][01]
<00><03><00><00><00><05><01><04>Waiting for a confirmation...
<02><00><00>
[00][04][00][00][00][06][02][02][00][6F][00][01]
Waiting for a confirmation...
<00><03><00><00><00><03><02><81><02>
<00><04><00><00><00><03><02><82><02>
[00][04][00][00][00][06][0B][04][00][6D][00][01]
[00][05][00][00][00][06][0A][03][00][64][00][0B]
Waiting for a confirmation...
Waiting for a confirmation...
<00><04><00><00><00><05><0B><04><02><00><00>
<00><05><00><00><00><19><0A><03><16><00><00><00><00><00><00><00><00><00><00><00><00><00><00><00><00><00><00><00><00><00><00>
[00][06][00][00][00][06][0A][01][00][6E][00][01]
[00][05][00][00][00][06][0A][02][00][6F][00][01]
Waiting for a confirmation...
Waiting for a confirmation...
<00><05><00><00><00><03><0A><82><02>
<00><06><00><00><00><03><0A><81>[00][06][00][00][00][06][0A][04][00][6D][00][01]
<02>
[00][07][00][00][00][06][0C][03][00][64][00][0B]
Waiting for a confirmation...
Waiting for a confirmation...
<00><06><00><00><00><05><0A><04><02><00><00>
[00][07][00][00][00][06][0C][01][00][6E][00][01]
<00><07><00><00><00><19><0C><03><16><00><00><00><00><00><00><00><00><00><00><00><00><00><00><00><00><00><00><00><00><00><00>
Waiting for a confirmation...
[00][08][00][00][00][06][0C][02][00][6F][00][01]
Waiting for a confirmation...
<00><07><00><00><00><03><0C><81><02>
<00><08><00><00><00><03><0C><82><02>
[00][09][00][00][00][06][0C][04][00][6D][00][01]
[00][08][00][00][00][06][FF][03][00][64][00][0B]
Waiting for a confirmation...
Waiting for a confirmation...
<00><08><00><00><00><19><FF><03><16><00><00><00><00><00><00><00><00><00><00><00><00><00><00><00><00><00><00><00><00><00><00>
<00><09><00><00><00><05><0C><04><02><00><00>
[00][09][00][00][00][06][01][03][00][6D][00][01]
Waiting for a confirmation...
<00><09><00><00><00><05><01><03><02><00><00>
[00][0A][00][00][00][06][01][03][00][64][00][0B]
[00][0A][00][00][00][06][01][01][00][6E][00][01]
Waiting for a confirmation...
Waiting for a confirmation...
<00><0A><00><00><00><03><01><81><02>
[00][0B][00][00][00][06][01][02][00][6F][00][01]
<00><0A><00><00><00><19><01><03><16><00><00><00><00><00><00><00><00><00><00><00><00><00><00><00><00><00><00><00><00><00><00>
Waiting for a confirmation...
[00][0B][00][00][00][06][01][04][00][6D][00][01]
Waiting for a confirmation...
<00><0B><00><00><00><03><01><82><02>
<00><0B><00><00><00><05><01><04><02><00><00>
[00][0C][00][00][00][06][02][01][00][6E][00][01]
Waiting for a confirmation...
[00][0C][00][00][00][06][02][02][00][6F][00][01]
Waiting for a confirmation...
<00><0C><00><00><00><03><02><81><02>
<00><0C><00><00><00><03><02><82><02>
[00][0D][00][00][00][06][0B][04][00][6D][00][01]
Waiting for a confirmation...
<00><0D><00><00><00><05><0B><04><02><00><00>
[00][0D][00][00][00][06][0A][03][00][64][00][0B]
[00][0E][00][00][00][06][0A][01][00][6E][00][01]
Waiting for a confirmation...
Waiting for a confirmation...
<00><0D><00><00><00><19><0A><03><16><00><00><00><00><00><00><00><00><00><00><00><00><00><00><00><00><00><00><00><00><00><00>
<00><0E><00><00><00><03><0A><81><02>
[00][0E][00][00][00][06][0A][02][00][6F][00][01]
Waiting for a confirmation...
[00][0F][00][00][00][06][0A][04][00][6D][00][01]
Waiting for a confirmation...
<00><0E><00><00><00><03><0A><82><02>
<00><0F><00><00><00><05><0A><04><02>[00][0F][00]<00>[00]<00>[00]
[06][FF][03][00][64][00][0B]
[00][10][00][00][00][06][0C][03][00][64][00][0B]
Waiting for a confirmation...
Waitabout to poll component #5, mapping #1  device_id 12
 >>>>>>>>>>>Polling total errors 0
Component "/components/comp_1", map array #2 had an error while polling, it is "Illegal data address"resp time 430877ns
about to poll component #5, mapping #2  device_id 12
 >>>>>>>>>>>Polling total errors 0
ERROR Illegal data address
ERROR Illegal data address
about to poll component #5, mapping #3  device_id 12
 >>>>>>>>>>>Polling total errors 0
Component "/components/comp_2", map array #0 had an error while polling, it is "Illegal data address"resp time 500675ns
 >>>>>>>>>>>Polling total errors 0
Component "/components/comp_2", map array #1 had an error while polling, it is "Illegal data address"resp time 418370ns
 >>>>>>>>>>>Polling total errors 0
 >>>>>>>>>>>Polling total errors 0
 >>>>>>>>>>>Polling total errors 0
about to poll component #0, mapping #0  device_id 1
 >>>>>>>>>>>Polling total errors 0
about to poll component #1, mapping #0  device_id 1
about to poll component #1, mapping #1  device_id 1
ERROR Illegal data address
about to poll component #1, mapping #2  device_id 1
about to poll component #1, mapping #3  device_id 1
 >>>>>>>>>>>Polling total errors 0
 >>>>>>>>>>>Polling total errors 0
ERROR Illegal data address
about to poll component #2, mapping #0  device_id 2
about to poll component #2, mapping #1  device_id 2
 >>>>>>>>>>>Polling total errors 0
Component "/components/comp_10", map array #1 had an error while polling, it is "Illegal data address"resp time 941731ns
 >>>>>>>>>>>Polling total errors 0
Component "/components/comp_10", map array #2 had an error while polling, it is "Illegal data address"resp time 568148ns
ERROR Illegal data address
about to poll component #3, mapping #0  device_id 11
 >>>>>>>>>>>Polling total errors 0
ERROR Illegal data address
 >>>>>>>>>>>Polling total errors 0
 >>>>>>>>>>>Polling total errors 0
 >>>>>>>>>>>Polling total errors 0
Component "/components/comp_12", map array #1 had an error while polling, it is "Illegal data address"resp time 625221ns
 >>>>>>>>>>>Polling total errors 0
about to poll component #4, mapping #0  device_id 10
about to poll component #4, mapping #1  device_id 10
ERROR Illegal data address
about to poll component #4, mapping #2  device_id 10
 >>>>>>>>>>>Polling total errors 0
 >>>>>>>>>>>Polling total errors 0
Component "/components/comp_12", map array #2 had an error while polling, it is "Illegal data address"resp time 461839ns
about to poll component #4, mapping #3  device_id 10
ERROR Illegal data address
about to poll component #6, mapping #0  device_id 255
 >>>>>>>>>>>Polling total errors 0
 >>>>>>>>>>>Polling total errors 0
 >>>>>>>>>>>Polling total errors 0
Component "/components/comp_1", map array #1 had an error while polling, it is "Illegal data address"resp time 439512ns
 >>>>>>>>>>>Polling total errors 0
 >>>>>>>>>>>Polling total errors 0
about to poll component #5, mapping #0  device_id 12
about to poll component #5, mapping #1  device_id 12
about to poll component #5, mapping #2  device_id 12
ERROR Illegal data address
about to poll component #5, mapping #3  device_id 12
 >>>>>>>>>>>Polling total errors 0
 >>>>>>>>>>>Polling total errors 0
Component "/components/comp_1", map array #2 had an error while polling, it is "Illegal data address"resp time 496256ns
ERROR Illegal data address
about to poll component #0, mapping #0  device_id 1
 >>>>>>>>>>>Polling total errors 0
 >>>>>>>>>>>Polling total errors 0
Component "/components/comp_2", map array #0 had an error while polling, it is "Illegal data address"resp time 460298ns
 >>>>>>>>>>>Polling total errors 0
Component "/components/comp_2", map array #1 had an error while polling, it is "Illegal data address"resp time 611670ns
 >>>>>>>>>>>Polling total errors 0
 >>>>>>>>>>>Polling total errors 0
about to poll component #1, mapping #0  device_id 1
about to poll component #1, mapping #1  device_id 1
ERROR Illegal data address
about to poll component #1, mapping #2  device_id 1
 >>>>>>>>>>>Polling total errors 0
 >>>>>>>>>>>Polling total errors 0
Component "/components/comp_10", map array #1 had an error while polling, it is "Illegal data address"resp time 725874ns
about to poll component #1, mapping #3  device_id 1
ERROR Illegal data address
about to poll component #2, mapping #0  device_id 2
about to poll component #2, mapping #1  device_id 2
 >>>>>>>>>>>Polling total errors 0
 >>>>>>>>>>>Polling total errors 0
Component "/components/comp_10", map array #2 had an error while polling, it is "Illegal data address"resp time 575511ns
ERROR Illegal data address
 >>>>>>>>>>>Polling total errors 0
ERROR Illegal data address
 >>>>>>>>>>>Polling total errors 0
 >>>>>>>>>>>Polling total errors 0
 >>>>>>>>>>>Polling total errors 0
about to poll component #3, mapping #0  device_id 11
 >>>>>>>>>>>Polling total errors 0
about to poll component #4, mapping #0  device_id 10
about to poll component #4, mapping #1  device_id 10
ing for a confirmation...
<00><0F><00><00><00><19><FF><03><16><00><00><00><00><00><00><00><00><00><00><00><00><00><00><00><00><00><00><00><00><00><00>
[00][10][00][00][00][06][0C][01][00][6E][00][01]
<00><10><00><00><00><19><0C><03><16>Waiting for a confirmation...
<00><00><00><00><00><00><00><00><00><00><00><00><00><00><00><00><00><00><00><00><00><00>
[00][11][00][00][00][06][0C][02][00][6F][00][01]
Waiting for a confirmation...
<00><10><00><00><00><03><0C><81><02>
<00><11><00><00><00><03><0C><82><02>
[00][11][00][00][00][06][0C][04][00][6D][00][01]
Waiting for a confirmation...
<00><11><00><00><00><05><0C><04><02><00><00>
[00][12][00][00][00][06][01][03][00][6D][00][01]
Waiting for a confirmation...
<00><12><00><00><00><05><01><03><02><00><00>
[00][13][00][00][00][06][01][03][00][64][00][0B]
Waiting for a confirmation...
[00][12][00][00][00][06][01][01][00][6E][00][01]
Waiting for a confirmation...
<00><12><00><00><00><03><01><81><02>
<00><13><00><00><00><19><01><03><16>[00][13][00][00][00][06][01][02][00][6F][00][01]
<00><00><00><00><00><00><00><00><00><00><00><00><00><00><00><00><00><00><00><00><00><00>
[00][14][00]Waiting for a confirmation...
[00][00][06][01][04][00][6D][00][01]
Waiting for a confirmation...
<00><13><00><00><00><03><01><82><02>
[00][14][00][00][00][06][02][01][00][6E][00][01]
<00><14><00><00><00><05><01><04><02><00><00>
Waiting for a confirmation...
[00][15][00][00][00][06][02][02][00][6F][00][01]
Waiting for a confirmation...
<00><14><00><00><00><03><02><81><02>
<00><15><00><00><00><03><02><82>[00][15][00][00][00][06][0B][04][00][6D][00][01]
<02>
Waiting for a confirmation...
<00><15><00><00><00><05><0B><04><02><00><00>
[00][16][00][00][00][06][0A][03][00][64][00][0B]
[00][16][00][00][00][06][0A][01][00][6E][00][01]
Waiting for a confirmation...
Waiting for a confirmation...
<00><16><00><00><00><03><0A><81><02>
<00><16><00><00><00><19><0A><03><16><00><00><00><00><00><00><00><00><00><00><00><00><00><00><00><00><00><00><00><00><00><00>
[00][17][00][00][00][06][0A][02][00][6F][00][01]
Waiting for a confirmation...
[00][17][00][00][00][06][0A][04][00][6D][00][01]
Waiting for a confirmation...
<00><17><00><00><00><03><0A><82><02>
<00><17><00><00><00><05><0A><04><02><00><00>
[00][18][00][00][00][06][FF][03][00][64][00][0B]
Waiting for a confirmation...
<00><18><00><00><00><19><FF><03><16><00><00><00><00><00><00><00><00><00><00><00><00><00><00><00><00><00><00><00><00><00><00>
[00][18][00][00][00][06][0C][03][00][64][00][0B]
[00][19][00][00][00][06][0C][01][00][6E][00][01]
Waiting for a confirmation...
Waiting for a confirmation...
<00><18><00><00><00><19><0C><03><16><00><00><00><00><00><00><00><00><00><00><00><00><00><00><00><00><00><00><00><00><00><00>
<00><19><00><00><00><03><0C><81>[00][19][00][00][00][06][0C][02][00][6F][00][01]
<02>
Waiting for a confirmation...
[00][1A][00][00][00][06][0C][04][00][6D][00][01]
Waiting for a confirmation...
<00><19><00><00><00><03><0C><82><02>
[00][1A][00][00][00][06][01][03][00][6D][00][01]
<00><1A><00><00><00><05><0C><04><02><00><00>
Waiting for a confirmation...
<00><1A><00><00><00><05><01><03><02><00><00>
[00][1B][00][00][00][06][01][03][00][64][00][0B]
[00][1B][00][00][00][06][01][01][00][6E][00][01]
Waiting for a confirmation...
Waiting for a confirmation...
<00><1B><00><00><00><03><01><81><02>
<00><1B><00><00><00><19><01><03><16>[00][1C][00][00][00][06][01][02][00][6F][00][01]
<00><00><00><00><00><00><00><00><00><00><00><00><00><00><00><00><00><00><00><00><00><00>
Waiting for a confirmation...
[00][1C][00][00][00][06][01][04][00][6D][00][01]
Waiting for a confirmation...
<00><1C><00><00><00><03><01><82><02>
<00><1C><00><00><00><05><01><04><02><00><00>
[00][1D][00][00][00][06][02][01][00][6E][00][01]
[00][1D][00][00][00][06][02][02][00][6F][00][01]
Waiting for a confirmation...
Waiting for a confirmation...
<00><1D><00><00><00><03><02><81><02>
<00><1D><00><00><00><03><02><82><02>
[00][1E][00][00][00][06][0B][04][00][6D][00][01]
Waiting for a confirmation...
<00><1E><00><00><00><05><0B><04><02><00><00>
[00][1E][00][00][00][06][0A][03][00][64][00][0B]
[00][1F][00ERROR Illegal data address
about to poll component #4, mapping #2  device_id 10
about to poll component #4, mapping #3  device_id 10
 >>>>>>>>>>>Polling total errors 0
 >>>>>>>>>>>Polling total errors 0
Component "/components/comp_12", map array #1 had an error while polling, it is "Illegal data address"resp time 718572ns
ERROR Illegal data address
about to poll component #6, mapping #0  device_id 255
 >>>>>>>>>>>Polling total errors 0
Component "/components/comp_12", map array #2 had an error while polling, it is "Illegal data address"resp time 523189ns
 >>>>>>>>>>>Polling total errors 0
 >>>>>>>>>>>Polling total errors 0
 >>>>>>>>>>>Polling total errors 0
Component "/components/comp_1", map array #1 had an error while polling, it is "Illegal data address"resp time 569313ns
 >>>>>>>>>>>Polling total errors 0
about to poll component #5, mapping #0  device_id 12
about to poll component #5, mapping #1  device_id 12
ERROR Illegal data address
about to poll component #5, mapping #2  device_id 12
about to poll component #5, mapping #3  device_id 12
 >>>>>>>>>>>Polling total errors 0
 >>>>>>>>>>>Polling total errors 0
about to poll component #0, mapping #0  device_id 1
ERROR Illegal data address
 >>>>>>>>>>>Polling total errors 0
Component "/components/comp_1", map array #2 had an error while polling, it is "Illegal data address"resp time 556879ns
 >>>>>>>>>>>Polling total errors 0
 >>>>>>>>>>>Polling total errors 0
Component "/components/comp_2", map array #0 had an error while polling, it is "Illegal data address"resp time 523881ns
 >>>>>>>>>>>Polling total errors 0
Component "/components/comp_2", map array #1 had an error while polling, it is "Illegal data address"resp time 664903ns
 >>>>>>>>>>>Polling total errors 0
about to poll component #1, mapping #0  device_id 1
about to poll component #1, mapping #1  device_id 1
ERROR Illegal data address
about to poll component #1, mapping #2  device_id 1
about to poll component #1, mapping #3  device_id 1
 >>>>>>>>>>>Polling total errors 0
 >>>>>>>>>>>Polling total errors 0
Component "/components/comp_10", map array #1 had an error while polling, it is "Illegal data address"resp time 485294ns
ERROR Illegal data address
 >>>>>>>>>>>Polling total errors 0
 >>>>>>>>>>>Polling total errors 0
Component "/components/comp_10", map array #2 had an error while polling, it is "Illegal data address"resp time 519998ns
 >>>>>>>>>>>Polling total errors 0
 >>>>>>>>>>>Polling total errors 0
about to poll component #2, mapping #0  device_id 2
about to poll component #2, mapping #1  device_id 2
ERROR Illegal data address
ERROR Illegal data address
 >>>>>>>>>>>Polling total errors 0
 >>>>>>>>>>>Polling total errors 0
about to poll component #3, mapping #0  device_id 11
 >>>>>>>>>>>Polling total errors 0
Component "/components/comp_12", map array #1 had an error while polling, it is "Illegal data address"resp time 343793ns
 >>>>>>>>>>>Polling total errors 0
 >>>>>>>>>>>Polling total errors 0
about to poll component #4, mapping #0  device_id 10
about to poll component #4, mapping #1  device_id 10
about to poll component #4, mapping #2  device_id 10
ERROR Illegal data address
about to poll component #4, mapping #3  device_id 10
 >>>>>>>>>>>Polling total errors 0
 >>>>>>>>>>>Polling total errors 0
ERROR Illegal data address
about to poll component #6, mapping #0  device_id 255
 >>>>>>>>>>>Polling total errors 0
Component "/components/comp_12", map array #2 had an error while polling, it is "Illegal data address"resp time 448509ns
 >>>>>>>>>>>Polling total errors 0
 >>>>>>>>>>>Polling total errors 0
Component "/components/comp_1", map array #1 had an error while polling, it is "Illegal data address"resp time 506957ns
Component "/components/comp_1" had 5 or more poll error cycles in a row. Exiting
][00][00][06][0A][01][00][6E][00][01]
Waiting for a confirmation...
Waiting for a confirmation...
<00><1F><00><00><00><03><0A><81><02>
<00><1E><00><00><00><19><0A><03>[00][20][00][00][00][06][0A][02]<16>[00][6F][00][01]
<00><00><00><00><00><00><00><00><00><00><00><00><00><00><00><00><00><00><00><00><00><00>
Waiting for a confirmation...
[00][1F][00][00][00][06][0A][04][00][6D][00][01]
Waiting for a confirmation...
<00><20><00><00><00><03><0A><82><02>
<00><1F><00><00><00><05><0A><04><02>[00][21][00][00][00][06][FF][03][00][64][00][0B]
<00><00>
Waiting for a confirmation...
<00><21><00><00><00><19><FF><03><16><00><00><00><00><00><00><00><00><00><00><00><00><00><00><00><00><00><00><00><00><00><00>
[00][20][00][00][00][06][0C][03][00][64][00][0B]
[00][22][00][00][00][06][0C][01][00][6E][00][01]
Waiting for a confirmation...
Waiting for a confirmation...
<00><22><00><00><00><03><0C><81><02>
<00><20><00><00><00><19><0C><03><16><00><00><00><00><00><00><00><00><00><00><00><00><00><00><00><00><00><00><00><00><00><00>
[00][21][00][00][00][06][0C][02][00][6F][00][01]
[00][23][00][00][00][06][0C][04][00][6D][00][01]
Waiting for a confirmation...
Waiting for a confirmation...
<00><23><00><00><00><05><0C><04><02><00><00>
<00><21><00><00><00>[00][24]<03>[00][00][00]<0C>[06]<82>[01][03][00][6D][00][01]
<02>
Waiting for a confirmation...
<00><24><00><00><00><05><01><03><02><00><00>
[00][22][00][00][00][06][01][03][00][64][00][0B]
[00][25][00][00][00][06][01][01][00][6E][00][01]
Waiting for a confirmation...
Waiting for a confirmation...
<00><25><00><00><00><03><01><81><02>
[00][26][00][00][00][06][01][02][00][6F][00][01]
<00><22><00><00><00><19><01><03><16><00><00><00><00><00><00><00><00><00><00><00><00><00><00><00><00><00><00><00><00><00><00>
Waiting for a confirmation...
[00][23][00][00][00][06][01][04][00][6D][00][01]
Waiting for a confirmation...
<00><26><00><00><00><03><01><82><02>
<00><23><00><00><00><05><01><04><02><00><00>
[00][24][00][00][00][06][02][01][00][6E][00][01]
[00][27][00][00][00][06][02][02][00][6F][00][01]
Waiting for a confirmation...
Waiting for a confirmation...
<00><27><00><00><00><03><02><82><02>
<00><24><00><00><00><03><02><81><02>
[00][28][00][00][00][06][0B][04][00][6D][00][01]
Waiting for a confirmation...
<00><28><00><00><00><05><0B><04><02><00><00>
[00][29][00][00][00][06][0A][03][00][64][00][0B]
[00][25][00][00][00][06][0A][01][00][6E][00][01]
Waiting for a confirmation...
Waiting for a confirmation...
<00><29><00><00><00><19><0A><03><16><00><00><00><00><00><00><00><00><00><00><00><00><00><00><00><00><00><00><00><00><00><00>
<00><25><00><00><00><03><0A><81>[00][2A][00][00][00][06][0A][02][00][6F][00][01]
<02>
Waiting for a confirmation...
[00][26][00][00][00][06][0A][04][00][6D][00][01]
Waiting for a confirmation...
<00><2A><00><00><00><03><0A><82><02>
<00><26><00><00><00><05><0A><04><02>[00][2B][00][00][00][06][FF][03][00][64][00][0B]
<00><00>
Waiting for a confirmation...
<00><2B><00><00><00><19><FF><03><16><00><00><00><00><00><00><00><00><00><00><00><00><00><00><00><00><00><00><00><00><00><00>
