client "example_notmp": Connected to server with 1 connection(s)
Waiting 2 seconds to initialize the Mono clock before beginning the main program
Mono clock finished synchronizing after a 2 second wait, this hardware's frequency = 2.4192001526667233 GHz. Beginning main program
 >>>>>>>>>>>Polling total errors 0
Clear Errors for /components/comp_0 0
about to poll component #0, mapping #0  device_id 255
 >>>>>>>>>>>Polling total errors 0
Clear Errors for /components/comp_1 1
about to poll component #1, mapping #0  device_id 255
about to poll component #1, mapping #1  device_id 255
 >>>>>>>>>>>Polling total errors 0
Clear Errors for /components/comp_2 2
about to poll component #1, mapping #2  device_id 255
 >>>>>>>>>>>Polling total errors 0
Clear Errors for /components/comp_11 3
about to poll component #1, mapping #3  device_id 255
 >>>>>>>>>>>Polling total errors 0
Clear Errors for /components/comp_10 4
about to poll component #2, mapping #0  device_id 255
 >>>>>>>>>>>Polling total errors 0
Clear Errors for /components/comp_12 5
about to poll component #2, mapping #1  device_id 255
 >>>>>>>>>>>Polling total errors 0
Clear Errors for /components/comp_00 6
about to poll component #3, mapping #0  device_id 255
 >>>>>>>>>>>Polling total errors 0
about to poll component #4, mapping #0  device_id 255
 >>>>>>>>>>>Polling total errors 0
about to poll component #4, mapping #1  device_id 255
 >>>>>>>>>>>Polling total errors 0
about to poll component #4, mapping #2  device_id 255
 >>>>>>>>>>>Polling total errors 0
about to poll component #4, mapping #3  device_id 255
 >>>>>>>>>>>Polling total errors 0
about to poll component #5, mapping #0  device_id 255
 >>>>>>>>>>>Polling total errors 0
about to poll component #5, mapping #1  device_id 255
 >>>>>>>>>>>Polling total errors 0
about to poll component #5, mapping #2  device_id 255
 >>>>>>>>>>>Polling total errors 0
about to poll component #5, mapping #3  device_id 255
 >>>>>>>>>>>Polling total errors 0
about to poll component #6, mapping #0  device_id 255
 >>>>>>>>>>>Polling total errors 0
 >>>>>>>>>>>Polling total errors 0
 >>>>>>>>>>>Polling total errors 0
 >>>>>>>>>>>Polling total errors 0
 >>>>>>>>>>>Polling total errors 0
 >>>>>>>>>>>Polling total errors 0
 >>>>>>>>>>>Polling total errors 0
about to poll component #0, mapping #0  device_id 255
about to poll component #1, mapping #0  device_id 255
 >>>>>>>>>>>Polling total errors 0
about to poll component #1, mapping #1  device_id 255
 >>>>>>>>>>>Polling total errors 0
about to poll component #1, mapping #2  device_id 255
 >>>>>>>>>>>Polling total errors 0
about to poll component #1, mapping #3  device_id 255
 >>>>>>>>>>>Polling total errors 0
about to poll component #2, mapping #0  device_id 255
 >>>>>>>>>>>Polling total errors 0
about to poll component #2, mapping #1  device_id 255
 >>>>>>>>>>>Polling total errors 0
about to poll component #3, mapping #0  device_id 255
 >>>>>>>>>>>Polling total errors 0
 >>>>>>>>>>>Polling total errors 0
 >>>>>>>>>>>Polling total errors 0
 >>>>>>>>>>>Polling total errors 0
about to poll component #4, mapping #0  device_id 255
about to poll component #4, mapping #1  device_id 255
 >>>>>>>>>>>Polling total errors 0
about to poll component #4, mapping #2  device_id 255
 >>>>>>>>>>>Polling total errors 0
about to poll component #4, mapping #3  device_id 255
 >>>>>>>>>>>Polling total errors 0
about to poll component #5, mapping #0  device_id 255
 >>>>>>>>>>>Polling total errors 0
[00][01][00][00][00][06][FF][03][00][6D][00][01]
Waiting for a confirmation...
<00><01><00><00><00><05><FF><03><02><00><00>
[00][02][00][00][00][06][FF][03][04][4C][00][0B]
Waiting for a confirmation...
<00><02><00><00><00><19><FF><03><16><00><00><00><00><00><00><00><00><00><00><00><00><00><00><00><00><00><00><00><00><00><00>
[00][03][00][00][00][06][FF][01][04][56][00][01]
Waiting for a confirmation...
<00><03><00><00><00><04><FF><01><01><00>
[00][04][00][00][00][06][FF][02][04][57][00][01]
Waiting for a confirmation...
<00><04><00><00><00><04><FF><02><01><00>
[00][05][00][00][00][06][FF][04][08][3D][00][01]
Waiting for a confirmation...
<00><05><00><00><00><05><FF><04><02><00><00>
[00][06][00][00][00][06][FF][01][0C][26][00][01]
Waiting for a confirmation...
<00><06><00><00><00><04><FF><01><01><00>
[00][07][00][00][00][06][FF][02][0C][27][00][01]
Waiting for a confirmation...
<00><07><00><00><00><04><FF><02><01><00>
[00][08][00][00][00][06][FF][04][10][0D][00][01]
Waiting for a confirmation...
<00><08><00><00><00><05><FF><04><02><00><00>
[00][09][00][00][00][06][FF][03][13][EC][00][0B]
Waiting for a confirmation...
<00><09><00><00><00><19><FF><03><16><00><00><00><00><00><00><00><00><00><00><00><00><00><00><00><00><00><00><00><00><00><00>
[00][0A][00][00][00][06][FF][01][17][DE][00][01]
Waiting for a confirmation...
<00><0A><00><00><00><04><FF><01><01><00>
[00][0B][00][00][00][06][FF][02][17][DF][00][01]
Waiting for a confirmation...
<00><0B><00><00><00><04><FF><02><01><00>
[00][0C][00][00][00][06][FF][04][1B][C5][00][01]
Waiting for a confirmation...
<00><0C><00><00><00><05><FF><04><02><00><00>
[00][0D][00][00][00][06][FF][03][1F][A4][00][0B]
Waiting for a confirmation...
<00><0D><00><00><00><19><FF><03><16><00><00><00><00><00><00><00><00><00><00><00><00><00><00><00><00><00><00><00><00><00><00>
[00][0E][00][00][00][06][FF][01][1F][AE][00][01]
Waiting for a confirmation...
<00><0E><00><00><00><04><FF><01><01><00>
[00][0F][00][00][00][06][FF][02][1F][AF][00][01]
Waiting for a confirmation...
<00><0F><00><00><00><04><FF><02><01><00>
[00][10][00][00][00][06][FF][04][1F][AD][00][01]
Waiting for a confirmation...
<00><10><00><00><00><05><FF><04><02><00><00>
[00][11][00][00][00][06][FF][03][00][00][00][0B]
Waiting for a confirmation...
<00><11><00><00><00><19><FF><03><16><00><00><00><00><00><00><00><00><00><00><00><00><00><00><00><00><00><00><00><00><00><00>
[00][12][00][00][00][06][FF][03][00][6D][00][01]
Waiting for a confirmation...
<00><12><00><00><00><05><FF><03><02><00><00>
[00][13][00][00][00][06][FF][03][04][4C][00][0B]
Waiting for a confirmation...
<00><13><00><00><00><19><FF><03><16><00><00><00><00><00><00><00><00><00><00><00><00><00><00><00><00><00><00><00><00><00><00>
[00][14][00][00][00][06][FF][01][04][56][00][01]
Waiting for a confirmation...
<00><14><00><00><00><04><FF><01><01><00>
[00][15][00][00][00][06][FF][02][04][57][00][01]
Waiting for a confirmation...
<00><15><00><00><00><04><FF><02><01><00>
[00][16][00][00][00][06][FF][04][08][3D][00][01]
Waiting for a confirmation...
<00><16><00><00><00><05><FF><04><02><00><00>
[00][17][00][00][00][06][FF][01][0C][26][00][01]
Waiting for a confirmation...
<00><17><00><00><00><04><FF><01><01><00>
[00][18][00][00][00][06][FF][02][0C][27][00][01]
Waiting for a confirmation...
<00><18><00><00><00><04><FF><02><01><00>
[00][19][00][00][00][06][FF][04][10][0D][00][01]
Waiting for a confirmation...
<00><19><00><00><00><05><FF><04><02><00><00>
[00][1A][00][00][00][06][FF][03][13][EC][00][0B]
Waiting for a confirmation...
<00><1A><00><00><00><19><FF><03><16><00><00><00><00><00><00><00><00><00><00><00><00><00><00><00><00><00><00><00><00><00><00>
[00][1B][00][00][00][06][FF][01][17][DE][00][01]
Waiting for a confirmation...
<00><1B><00><00><00><04><FF><01><01><00>
[00][1C][00][00][00][06][FF][02][17][DF][00][01]
Waiting for a confirmation...
<00><1C><00><00><00><04><FF><02><01><00>
[00][1D][00][00][00][06][FF][04][1B][C5][00][01]
Waiting for a confirmation...
<00><1D><00><00><00><05><FF><04><02><00><00>
[00][1E][00][00][00][06][FF][03][1F][A4][00][0B]
Waiting for a confirmation.about to poll component #5, mapping #1  device_id 255
 >>>>>>>>>>>Polling total errors 0
about to poll component #5, mapping #2  device_id 255
 >>>>>>>>>>>Polling total errors 0
about to poll component #5, mapping #3  device_id 255
 >>>>>>>>>>>Polling total errors 0
about to poll component #6, mapping #0  device_id 255
 >>>>>>>>>>>Polling total errors 0
about to poll component #0, mapping #0  device_id 255
 >>>>>>>>>>>Polling total errors 0
 >>>>>>>>>>>Polling total errors 0
 >>>>>>>>>>>Polling total errors 0
 >>>>>>>>>>>Polling total errors 0
about to poll component #1, mapping #0  device_id 255
about to poll component #1, mapping #1  device_id 255
 >>>>>>>>>>>Polling total errors 0
about to poll component #1, mapping #2  device_id 255
 >>>>>>>>>>>Polling total errors 0
about to poll component #1, mapping #3  device_id 255
 >>>>>>>>>>>Polling total errors 0
about to poll component #2, mapping #0  device_id 255
 >>>>>>>>>>>Polling total errors 0
about to poll component #2, mapping #1  device_id 255
 >>>>>>>>>>>Polling total errors 0
about to poll component #3, mapping #0  device_id 255
 >>>>>>>>>>>Polling total errors 0
 >>>>>>>>>>>Polling total errors 0
 >>>>>>>>>>>Polling total errors 0
 >>>>>>>>>>>Polling total errors 0
about to poll component #4, mapping #0  device_id 255
about to poll component #4, mapping #1  device_id 255
 >>>>>>>>>>>Polling total errors 0
about to poll component #4, mapping #2  device_id 255
 >>>>>>>>>>>Polling total errors 0
about to poll component #4, mapping #3  device_id 255
 >>>>>>>>>>>Polling total errors 0
about to poll component #5, mapping #0  device_id 255
 >>>>>>>>>>>Polling total errors 0
about to poll component #5, mapping #1  device_id 255
 >>>>>>>>>>>Polling total errors 0
about to poll component #5, mapping #2  device_id 255
 >>>>>>>>>>>Polling total errors 0
about to poll component #5, mapping #3  device_id 255
 >>>>>>>>>>>Polling total errors 0
about to poll component #6, mapping #0  device_id 255
 >>>>>>>>>>>Polling total errors 0
 >>>>>>>>>>>Polling total errors 0
 >>>>>>>>>>>Polling total errors 0
 >>>>>>>>>>>Polling total errors 0
about to poll component #0, mapping #0  device_id 255
 >>>>>>>>>>>Polling total errors 0
about to poll component #1, mapping #0  device_id 255
about to poll component #1, mapping #1  device_id 255
 >>>>>>>>>>>Polling total errors 0
about to poll component #1, mapping #2  device_id 255
 >>>>>>>>>>>Polling total errors 0
about to poll component #1, mapping #3  device_id 255
 >>>>>>>>>>>Polling total errors 0
about to poll component #2, mapping #0  device_id 255
 >>>>>>>>>>>Polling total errors 0
about to poll component #2, mapping #1  device_id 255
 >>>>>>>>>>>Polling total errors 0
about to poll component #3, mapping #0  device_id 255
..
<00><1E><00><00><00><19><FF><03><16><00><00><00><00><00><00><00><00><00><00><00><00><00><00><00><00><00><00><00><00><00><00>
[00][1F][00][00][00][06][FF][01][1F][AE][00][01]
Waiting for a confirmation...
<00><1F><00><00><00><04><FF><01><01><00>
[00][20][00][00][00][06][FF][02][1F][AF][00][01]
Waiting for a confirmation...
<00><20><00><00><00><04><FF><02><01><00>
[00][21][00][00][00][06][FF][04][1F][AD][00][01]
Waiting for a confirmation...
<00><21><00><00><00><05><FF><04><02><00><00>
[00][22][00][00][00][06][FF][03][00][00][00][0B]
Waiting for a confirmation...
<00><22><00><00><00><19><FF><03><16><00><00><00><00><00><00><00><00><00><00><00><00><00><00><00><00><00><00><00><00><00><00>
[00][23][00][00][00][06][FF][03][00][6D][00][01]
Waiting for a confirmation...
<00><23><00><00><00><05><FF><03><02><00><00>
[00][24][00][00][00][06][FF][03][04][4C][00][0B]
Waiting for a confirmation...
<00><24><00><00><00><19><FF><03><16><00><00><00><00><00><00><00><00><00><00><00><00><00><00><00><00><00><00><00><00><00><00>
[00][25][00][00][00][06][FF][01][04][56][00][01]
Waiting for a confirmation...
<00><25><00><00><00><04><FF><01><01><00>
[00][26][00][00][00][06][FF][02][04][57][00][01]
Waiting for a confirmation...
<00><26><00><00><00><04><FF><02><01><00>
[00][27][00][00][00][06][FF][04][08][3D][00][01]
Waiting for a confirmation...
<00><27><00><00><00><05><FF><04><02><00><00>
[00][28][00][00][00][06][FF][01][0C][26][00][01]
Waiting for a confirmation...
<00><28><00><00><00><04><FF><01><01><00>
[00][29][00][00][00][06][FF][02][0C][27][00][01]
Waiting for a confirmation...
<00><29><00><00><00><04><FF><02><01><00>
[00][2A][00][00][00][06][FF][04][10][0D][00][01]
Waiting for a confirmation...
<00><2A><00><00><00><05><FF><04><02><00><00>
[00][2B][00][00][00][06][FF][03][13][EC][00][0B]
Waiting for a confirmation...
<00><2B><00><00><00><19><FF><03><16><00><00><00><00><00><00><00><00><00><00><00><00><00><00><00><00><00><00><00><00><00><00>
[00][2C][00][00][00][06][FF][01][17][DE][00][01]
Waiting for a confirmation...
<00><2C><00><00><00><04><FF><01><01><00>
[00][2D][00][00][00][06][FF][02][17][DF][00][01]
Waiting for a confirmation...
<00><2D><00><00><00><04><FF><02><01><00>
[00][2E][00][00][00][06][FF][04][1B][C5][00][01]
Waiting for a confirmation...
<00><2E><00><00><00><05><FF><04><02><00><00>
[00][2F][00][00][00][06][FF][03][1F][A4][00][0B]
Waiting for a confirmation...
<00><2F><00><00><00><19><FF><03><16><00><00><00><00><00><00><00><00><00><00><00><00><00><00><00><00><00><00><00><00><00><00>
[00][30][00][00][00][06][FF][01][1F][AE][00][01]
Waiting for a confirmation...
<00><30><00><00><00><04><FF><01><01><00>
[00][31][00][00][00][06][FF][02][1F][AF][00][01]
Waiting for a confirmation...
<00><31><00><00><00><04><FF><02><01><00>
[00][32][00][00][00][06][FF][04][1F][AD][00][01]
Waiting for a confirmation...
<00><32><00><00><00><05><FF><04><02><00><00>
[00][33][00][00][00][06][FF][03][00][00][00][0B]
Waiting for a confirmation...
<00><33><00><00><00><19><FF><03><16><00><00><00><00><00><00><00><00><00><00><00><00><00><00><00><00><00><00><00><00><00><00>
[00][34][00][00][00][06][FF][03][00][6D][00][01]
Waiting for a confirmation...
<00><34><00><00><00><05><FF><03><02><00><00>
[00][35][00][00][00][06][FF][03][04][4C][00][0B]
Waiting for a confirmation...
<00><35><00><00><00><19><FF><03><16><00><00><00><00><00><00><00><00><00><00><00><00><00><00><00><00><00><00><00><00><00><00>
[00][36][00][00][00][06][FF][01][04][56][00][01]
Waiting for a confirmation...
<00><36><00><00><00><04><FF><01><01><00>
[00][37][00][00][00][06][FF][02][04][57][00][01]
Waiting for a confirmation...
<00><37><00><00><00><04><FF><02><01><00>
[00][38][00][00][00][06][FF][04][08][3D][00][01]
Waiting for a confirmation...
<00><38><00><00><00><05><FF><04><02><00><00>
[00][39][00][00][00][06][FF][01][0C][26][00][01]
Waiting for a confirmation...
<00><39><00><00><00><04><FF><01><01><00>
[00][3A][00][00][00][06][FF][02][0C][27][00][01]
Waiting for a confirmation...
<00><3A><00><00><00><04><FF><02><01><00>
[00][3B][00][00][00][06][FF][04][10][0D][00][01]
Waiting for a confirmat >>>>>>>>>>>Polling total errors 0
 >>>>>>>>>>>Polling total errors 0
 >>>>>>>>>>>Polling total errors 0
 >>>>>>>>>>>Polling total errors 0
about to poll component #4, mapping #0  device_id 255
about to poll component #4, mapping #1  device_id 255
 >>>>>>>>>>>Polling total errors 0
about to poll component #4, mapping #2  device_id 255
 >>>>>>>>>>>Polling total errors 0
about to poll component #4, mapping #3  device_id 255
 >>>>>>>>>>>Polling total errors 0
 >>>>>>>>>>>Polling total errors 0
 >>>>>>>>>>>Polling total errors 0
 >>>>>>>>>>>Polling total errors 0
about to poll component #5, mapping #0  device_id 255
about to poll component #5, mapping #1  device_id 255
 >>>>>>>>>>>Polling total errors 0
about to poll component #5, mapping #2  device_id 255
 >>>>>>>>>>>Polling total errors 0
about to poll component #5, mapping #3  device_id 255
 >>>>>>>>>>>Polling total errors 0
about to poll component #6, mapping #0  device_id 255
 >>>>>>>>>>>Polling total errors 0
about to poll component #0, mapping #0  device_id 255
 >>>>>>>>>>>Polling total errors 0
 >>>>>>>>>>>Polling total errors 0
 >>>>>>>>>>>Polling total errors 0
 >>>>>>>>>>>Polling total errors 0
about to poll component #1, mapping #0  device_id 255
about to poll component #1, mapping #1  device_id 255
 >>>>>>>>>>>Polling total errors 0
about to poll component #1, mapping #2  device_id 255
 >>>>>>>>>>>Polling total errors 0
about to poll component #1, mapping #3  device_id 255
 >>>>>>>>>>>Polling total errors 0
about to poll component #2, mapping #0  device_id 255
 >>>>>>>>>>>Polling total errors 0
about to poll component #2, mapping #1  device_id 255
 >>>>>>>>>>>Polling total errors 0
 >>>>>>>>>>>Polling total errors 0
 >>>>>>>>>>>Polling total errors 0
 >>>>>>>>>>>Polling total errors 0
about to poll component #3, mapping #0  device_id 255
 >>>>>>>>>>>Polling total errors 0
about to poll component #4, mapping #0  device_id 255
about to poll component #4, mapping #1  device_id 255
 >>>>>>>>>>>Polling total errors 0
about to poll component #4, mapping #2  device_id 255
 >>>>>>>>>>>Polling total errors 0
about to poll component #4, mapping #3  device_id 255
 >>>>>>>>>>>Polling total errors 0
 >>>>>>>>>>>Polling total errors 0
 >>>>>>>>>>>Polling total errors 0
 >>>>>>>>>>>Polling total errors 0
about to poll component #5, mapping #0  device_id 255
about to poll component #5, mapping #1  device_id 255
 >>>>>>>>>>>Polling total errors 0
about to poll component #5, mapping #2  device_id 255
 >>>>>>>>>>>Polling total errors 0
about to poll component #5, mapping #3  device_id 255
 >>>>>>>>>>>Polling total errors 0
about to poll component #6, mapping #0  device_id 255
 >>>>>>>>>>>Polling total errors 0
about to poll component #0, mapping #0  device_id 255
 >>>>>>>>>>>Polling total errors 0
 >>>>>>>>>>>Polling total errors 0
 >>>>>>>>>>>Polling total errors 0
 >>>>>>>>>>>Polling total errors 0
about to poll component #1, mapping #0  device_id 255
ion...
<00><3B><00><00><00><05><FF><04><02><00><00>
[00][3C][00][00][00][06][FF][03][13][EC][00][0B]
Waiting for a confirmation...
<00><3C><00><00><00><19><FF><03><16><00><00><00><00><00><00><00><00><00><00><00><00><00><00><00><00><00><00><00><00><00><00>
[00][3D][00][00][00][06][FF][01][17][DE][00][01]
Waiting for a confirmation...
<00><3D><00><00><00><04><FF><01><01><00>
[00][3E][00][00][00][06][FF][02][17][DF][00][01]
Waiting for a confirmation...
<00><3E><00><00><00><04><FF><02><01><00>
[00][3F][00][00][00][06][FF][04][1B][C5][00][01]
Waiting for a confirmation...
<00><3F><00><00><00><05><FF><04><02><00><00>
[00][40][00][00][00][06][FF][03][1F][A4][00][0B]
Waiting for a confirmation...
<00><40><00><00><00><19><FF><03><16><00><00><00><00><00><00><00><00><00><00><00><00><00><00><00><00><00><00><00><00><00><00>
[00][41][00][00][00][06][FF][01][1F][AE][00][01]
Waiting for a confirmation...
<00><41><00><00><00><04><FF><01><01><00>
[00][42][00][00][00][06][FF][02][1F][AF][00][01]
Waiting for a confirmation...
<00><42><00><00><00><04><FF><02><01><00>
[00][43][00][00][00][06][FF][04][1F][AD][00][01]
Waiting for a confirmation...
<00><43><00><00><00><05><FF><04><02><00><00>
[00][44][00][00][00][06][FF][03][00][00][00][0B]
Waiting for a confirmation...
<00><44><00><00><00><19><FF><03><16><00><00><00><00><00><00><00><00><00><00><00><00><00><00><00><00><00><00><00><00><00><00>
[00][45][00][00][00][06][FF][03][00][6D][00][01]
Waiting for a confirmation...
<00><45><00><00><00><05><FF><03><02><00><00>
[00][46][00][00][00][06][FF][03][04][4C][00][0B]
Waiting for a confirmation...
<00><46><00><00><00><19><FF><03><16><00><00><00><00><00><00><00><00><00><00><00><00><00><00><00><00><00><00><00><00><00><00>
[00][47][00][00][00][06][FF][01][04][56][00][01]
Waiting for a confirmation...
<00><47><00><00><00><04><FF><01><01><00>
[00][48][00][00][00][06][FF][02][04][57][00][01]
Waiting for a confirmation...
<00><48><00><00><00><04><FF><02><01><00>
[00][49][00][00][00][06][FF][04][08][3D][00][01]
Waiting for a confirmation...
<00><49><00><00><00><05><FF><04><02><00><00>
[00][4A][00][00][00][06][FF][01][0C][26][00][01]
Waiting for a confirmation...
<00><4A><00><00><00><04><FF><01><01><00>
[00][4B][00][00][00][06][FF][02][0C][27][00][01]
Waiting for a confirmation...
<00><4B><00><00><00><04><FF><02><01><00>
[00][4C][00][00][00][06][FF][04][10][0D][00][01]
Waiting for a confirmation...
<00><4C><00><00><00><05><FF><04><02><00><00>
[00][4D][00][00][00][06][FF][03][13][EC][00][0B]
Waiting for a confirmation...
<00><4D><00><00><00><19><FF><03><16><00><00><00><00><00><00><00><00><00><00><00><00><00><00><00><00><00><00><00><00><00><00>
[00][4E][00][00][00][06][FF][01][17][DE][00][01]
Waiting for a confirmation...
<00><4E><00><00><00><04><FF><01><01><00>
[00][4F][00][00][00][06][FF][02][17][DF][00][01]
Waiting for a confirmation...
<00><4F><00><00><00><04><FF><02><01><00>
[00][50][00][00][00][06][FF][04][1B][C5][00][01]
Waiting for a confirmation...
<00><50><00><00><00><05><FF><04><02><00><00>
[00][51][00][00][00][06][FF][03][1F][A4][00][0B]
Waiting for a confirmation...
<00><51><00><00><00><19><FF><03><16><00><00><00><00><00><00><00><00><00><00><00><00><00><00><00><00><00><00><00><00><00><00>
[00][52][00][00][00][06][FF][01][1F][AE][00][01]
Waiting for a confirmation...
<00><52><00><00><00><04><FF><01><01><00>
[00][53][00][00][00][06][FF][02][1F][AF][00][01]
Waiting for a confirmation...
<00><53><00><00><00><04><FF><02><01><00>
[00][54][00][00][00][06][FF][04][1F][AD][00][01]
Waiting for a confirmation...
<00><54><00><00><00><05><FF><04><02><00><00>
[00][55][00][00][00][06][FF][03][00][00][00][0B]
Waiting for a confirmation...
<00><55><00><00><00><19><FF><03><16><00><00><00><00><00><00><00><00><00><00><00><00><00><00><00><00><00><00><00><00><00><00>
[00][56][00][00][00][06][FF][03][00][6D][00][01]
Waiting for a confirmation...
<00><56><00><00><00><05><FF><03><02><00><00>
[00][57][00][00][00][06][FF][03][04][4C][00][0B]
Waiting for a confirmation...
<00><57><00><00><00><19><FF><03><16><00><00><00><00><00><00><00><00><00><00><00><00><00><00><00><00><00><about to poll component #1, mapping #1  device_id 255
 >>>>>>>>>>>Polling total errors 0
about to poll component #1, mapping #2  device_id 255
 >>>>>>>>>>>Polling total errors 0
about to poll component #1, mapping #3  device_id 255
 >>>>>>>>>>>Polling total errors 0
 >>>>>>>>>>>Polling total errors 0
 >>>>>>>>>>>Polling total errors 0
 >>>>>>>>>>>Polling total errors 0
about to poll component #2, mapping #0  device_id 255
about to poll component #2, mapping #1  device_id 255
 >>>>>>>>>>>Polling total errors 0
about to poll component #3, mapping #0  device_id 255
 >>>>>>>>>>>Polling total errors 0
 >>>>>>>>>>>Polling total errors 0
 >>>>>>>>>>>Polling total errors 0
 >>>>>>>>>>>Polling total errors 0
about to poll component #4, mapping #0  device_id 255
about to poll component #4, mapping #1  device_id 255
 >>>>>>>>>>>Polling total errors 0
about to poll component #4, mapping #2  device_id 255
 >>>>>>>>>>>Polling total errors 0
about to poll component #4, mapping #3  device_id 255
 >>>>>>>>>>>Polling total errors 0
 >>>>>>>>>>>Polling total errors 0
 >>>>>>>>>>>Polling total errors 0
 >>>>>>>>>>>Polling total errors 0
about to poll component #5, mapping #0  device_id 255
about to poll component #5, mapping #1  device_id 255
 >>>>>>>>>>>Polling total errors 0
about to poll component #5, mapping #2  device_id 255
 >>>>>>>>>>>Polling total errors 0
about to poll component #5, mapping #3  device_id 255
 >>>>>>>>>>>Polling total errors 0
about to poll component #6, mapping #0  device_id 255
 >>>>>>>>>>>Polling total errors 0
about to poll component #0, mapping #0  device_id 255
 >>>>>>>>>>>Polling total errors 0
 >>>>>>>>>>>Polling total errors 0
 >>>>>>>>>>>Polling total errors 0
 >>>>>>>>>>>Polling total errors 0
about to poll component #1, mapping #0  device_id 255
about to poll component #1, mapping #1  device_id 255
 >>>>>>>>>>>Polling total errors 0
about to poll component #1, mapping #2  device_id 255
 >>>>>>>>>>>Polling total errors 0
about to poll component #1, mapping #3  device_id 255
 >>>>>>>>>>>Polling total errors 0
about to poll component #2, mapping #0  device_id 255
 >>>>>>>>>>>Polling total errors 0
about to poll component #2, mapping #1  device_id 255
 >>>>>>>>>>>Polling total errors 0
 >>>>>>>>>>>Polling total errors 0
 >>>>>>>>>>>Polling total errors 0
 >>>>>>>>>>>Polling total errors 0
about to poll component #3, mapping #0  device_id 255
 >>>>>>>>>>>Polling total errors 0
about to poll component #4, mapping #0  device_id 255
about to poll component #4, mapping #1  device_id 255
 >>>>>>>>>>>Polling total errors 0
about to poll component #4, mapping #2  device_id 255
 >>>>>>>>>>>Polling total errors 0
about to poll component #4, mapping #3  device_id 255
 >>>>>>>>>>>Polling total errors 0
 >>>>>>>>>>>Polling total errors 0
 >>>>>>>>>>>Polling total errors 0
 >>>>>>>>>>>Polling total errors 0
about to poll component #5, mapping #0  device_id 255
about to poll component #5, mapping #1  device_id 255
 >>>>>>>>>>>Polling total errors 0
about to poll component #5, mapping #2  device_id 255
 >>>>>>>>>>>Polling total errors 0
00><00><00><00><00>
[00][58][00][00][00][06][FF][01][04][56][00][01]
Waiting for a confirmation...
<00><58><00><00><00><04><FF><01><01><00>
[00][59][00][00][00][06][FF][02][04][57][00][01]
Waiting for a confirmation...
<00><59><00><00><00><04><FF><02><01><00>
[00][5A][00][00][00][06][FF][04][08][3D][00][01]
Waiting for a confirmation...
<00><5A><00><00><00><05><FF><04><02><00><00>
[00][5B][00][00][00][06][FF][01][0C][26][00][01]
Waiting for a confirmation...
<00><5B><00><00><00><04><FF><01><01><00>
[00][5C][00][00][00][06][FF][02][0C][27][00][01]
Waiting for a confirmation...
<00><5C><00><00><00><04><FF><02><01><00>
[00][5D][00][00][00][06][FF][04][10][0D][00][01]
Waiting for a confirmation...
<00><5D><00><00><00><05><FF><04><02><00><00>
[00][5E][00][00][00][06][FF][03][13][EC][00][0B]
Waiting for a confirmation...
<00><5E><00><00><00><19><FF><03><16><00><00><00><00><00><00><00><00><00><00><00><00><00><00><00><00><00><00><00><00><00><00>
[00][5F][00][00][00][06][FF][01][17][DE][00][01]
Waiting for a confirmation...
<00><5F><00><00><00><04><FF><01><01><00>
[00][60][00][00][00][06][FF][02][17][DF][00][01]
Waiting for a confirmation...
<00><60><00><00><00><04><FF><02><01><00>
[00][61][00][00][00][06][FF][04][1B][C5][00][01]
Waiting for a confirmation...
<00><61><00><00><00><05><FF><04><02><00><00>
[00][62][00][00][00][06][FF][03][1F][A4][00][0B]
Waiting for a confirmation...
<00><62><00><00><00><19><FF><03><16><00><00><00><00><00><00><00><00><00><00><00><00><00><00><00><00><00><00><00><00><00><00>
[00][63][00][00][00][06][FF][01][1F][AE][00][01]
Waiting for a confirmation...
<00><63><00><00><00><04><FF><01><01><00>
[00][64][00][00][00][06][FF][02][1F][AF][00][01]
Waiting for a confirmation...
<00><64><00><00><00><04><FF><02><01><00>
[00][65][00][00][00][06][FF][04][1F][AD][00][01]
Waiting for a confirmation...
<00><65><00><00><00><05><FF><04><02><00><00>
[00][66][00][00][00][06][FF][03][00][00][00][0B]
Waiting for a confirmation...
<00><66><00><00><00><19><FF><03><16><00><00><00><00><00><00><00><00><00><00><00><00><00><00><00><00><00><00><00><00><00><00>
[00][67][00][00][00][06][FF][03][00][6D][00][01]
Waiting for a confirmation...
<00><67><00><00><00><05><FF><03><02><00><00>
[00][68][00][00][00][06][FF][03][04][4C][00][0B]
Waiting for a confirmation...
<00><68><00><00><00><19><FF><03><16><00><00><00><00><00><00><00><00><00><00><00><00><00><00><00><00><00><00><00><00><00><00>
[00][69][00][00][00][06][FF][01][04][56][00][01]
Waiting for a confirmation...
<00><69><00><00><00><04><FF><01><01><00>
[00][6A][00][00][00][06][FF][02][04][57][00][01]
Waiting for a confirmation...
<00><6A><00><00><00><04><FF><02><01><00>
[00][6B][00][00][00][06][FF][04][08][3D][00][01]
Waiting for a confirmation...
<00><6B><00><00><00><05><FF><04><02><00><00>
[00][6C][00][00][00][06][FF][01][0C][26][00][01]
Waiting for a confirmation...
<00><6C><00><00><00><04><FF><01><01><00>
[00][6D][00][00][00][06][FF][02][0C][27][00][01]
Waiting for a confirmation...
<00><6D><00><00><00><04><FF><02><01><00>
[00][6E][00][00][00][06][FF][04][10][0D][00][01]
Waiting for a confirmation...
<00><6E><00><00><00><05><FF><04><02><00><00>
[00][6F][00][00][00][06][FF][03][13][EC][00][0B]
Waiting for a confirmation...
<00><6F><00><00><00><19><FF><03><16><00><00><00><00><00><00><00><00><00><00><00><00><00><00><00><00><00><00><00><00><00><00>
[00][70][00][00][00][06][FF][01][17][DE][00][01]
Waiting for a confirmation...
<00><70><00><00><00><04><FF><01><01><00>
[00][71][00][00][00][06][FF][02][17][DF][00][01]
Waiting for a confirmation...
<00><71><00><00><00><04><FF><02><01><00>
[00][72][00][00][00][06][FF][04][1B][C5][00][01]
Waiting for a confirmation...
<00><72><00><00><00><05><FF><04><02><00><00>
[00][73][00][00][00][06][FF][03][1F][A4][00][0B]
Waiting for a confirmation...
<00><73><00><00><00><19><FF><03><16><00><00><00><00><00><00><00><00><00><00><00><00><00><00><00><00><00><00><00><00><00><00>
[00][74][00][00][00][06][FF][01][1F][AE][00][01]
Waiting for a confirmation...
<00><74><00><00><00><04><FF><01><01><00>
[00][75][00][00][00][06][FF][02][1F][AF][00][01]
Waiting forabout to poll component #5, mapping #3  device_id 255
 >>>>>>>>>>>Polling total errors 0
about to poll component #6, mapping #0  device_id 255
 >>>>>>>>>>>Polling total errors 0
about to poll component #0, mapping #0  device_id 255
 >>>>>>>>>>>Polling total errors 0
 >>>>>>>>>>>Polling total errors 0
 >>>>>>>>>>>Polling total errors 0
 >>>>>>>>>>>Polling total errors 0
about to poll component #1, mapping #0  device_id 255
about to poll component #1, mapping #1  device_id 255
 >>>>>>>>>>>Polling total errors 0
about to poll component #1, mapping #2  device_id 255
 >>>>>>>>>>>Polling total errors 0
about to poll component #1, mapping #3  device_id 255
 >>>>>>>>>>>Polling total errors 0
 >>>>>>>>>>>Polling total errors 0
 >>>>>>>>>>>Polling total errors 0
 >>>>>>>>>>>Polling total errors 0
about to poll component #2, mapping #0  device_id 255
about to poll component #2, mapping #1  device_id 255
 >>>>>>>>>>>Polling total errors 0
about to poll component #3, mapping #0  device_id 255
 >>>>>>>>>>>Polling total errors 0
 >>>>>>>>>>>Polling total errors 0
 >>>>>>>>>>>Polling total errors 0
 >>>>>>>>>>>Polling total errors 0
about to poll component #4, mapping #0  device_id 255
about to poll component #4, mapping #1  device_id 255
 >>>>>>>>>>>Polling total errors 0
about to poll component #4, mapping #2  device_id 255
 >>>>>>>>>>>Polling total errors 0
about to poll component #4, mapping #3  device_id 255
 >>>>>>>>>>>Polling total errors 0
 >>>>>>>>>>>Polling total errors 0
 >>>>>>>>>>>Polling total errors 0
 >>>>>>>>>>>Polling total errors 0
about to poll component #5, mapping #0  device_id 255
about to poll component #5, mapping #1  device_id 255
 >>>>>>>>>>>Polling total errors 0
about to poll component #5, mapping #2  device_id 255
 >>>>>>>>>>>Polling total errors 0
about to poll component #5, mapping #3  device_id 255
 >>>>>>>>>>>Polling total errors 0
about to poll component #6, mapping #0  device_id 255
 >>>>>>>>>>>Polling total errors 0
about to poll component #0, mapping #0  device_id 255
 >>>>>>>>>>>Polling total errors 0
 >>>>>>>>>>>Polling total errors 0
 >>>>>>>>>>>Polling total errors 0
 >>>>>>>>>>>Polling total errors 0
about to poll component #1, mapping #0  device_id 255
about to poll component #1, mapping #1  device_id 255
 >>>>>>>>>>>Polling total errors 0
about to poll component #1, mapping #2  device_id 255
 >>>>>>>>>>>Polling total errors 0
about to poll component #1, mapping #3  device_id 255
 >>>>>>>>>>>Polling total errors 0
about to poll component #2, mapping #0  device_id 255
 >>>>>>>>>>>Polling total errors 0
about to poll component #2, mapping #1  device_id 255
 >>>>>>>>>>>Polling total errors 0
 >>>>>>>>>>>Polling total errors 0
 >>>>>>>>>>>Polling total errors 0
 >>>>>>>>>>>Polling total errors 0
about to poll component #3, mapping #0  device_id 255
 >>>>>>>>>>>Polling total errors 0
 >>>>>>>>>>>Polling total errors 0
 >>>>>>>>>>>Polling total errors 0
about to poll component #4, mapping #0  device_id 255
about to poll component #4, mapping #1  device_id 255
 a confirmation...
<00><75><00><00><00><04><FF><02><01><00>
[00][76][00][00][00][06][FF][04][1F][AD][00][01]
Waiting for a confirmation...
<00><76><00><00><00><05><FF><04><02><00><00>
[00][77][00][00][00][06][FF][03][00][00][00][0B]
Waiting for a confirmation...
<00><77><00><00><00><19><FF><03><16><00><00><00><00><00><00><00><00><00><00><00><00><00><00><00><00><00><00><00><00><00><00>
[00][78][00][00][00][06][FF][03][00][6D][00][01]
Waiting for a confirmation...
<00><78><00><00><00><05><FF><03><02><00><00>
[00][79][00][00][00][06][FF][03][04][4C][00][0B]
Waiting for a confirmation...
<00><79><00><00><00><19><FF><03><16><00><00><00><00><00><00><00><00><00><00><00><00><00><00><00><00><00><00><00><00><00><00>
[00][7A][00][00][00][06][FF][01][04][56][00][01]
Waiting for a confirmation...
<00><7A><00><00><00><04><FF><01><01><00>
[00][7B][00][00][00][06][FF][02][04][57][00][01]
Waiting for a confirmation...
<00><7B><00><00><00><04><FF><02><01><00>
[00][7C][00][00][00][06][FF][04][08][3D][00][01]
Waiting for a confirmation...
<00><7C><00><00><00><05><FF><04><02><00><00>
[00][7D][00][00][00][06][FF][01][0C][26][00][01]
Waiting for a confirmation...
<00><7D><00><00><00><04><FF><01><01><00>
[00][7E][00][00][00][06][FF][02][0C][27][00][01]
Waiting for a confirmation...
<00><7E><00><00><00><04><FF><02><01><00>
[00][7F][00][00][00][06][FF][04][10][0D][00][01]
Waiting for a confirmation...
<00><7F><00><00><00><05><FF><04><02><00><00>
[00][80][00][00][00][06][FF][03][13][EC][00][0B]
Waiting for a confirmation...
<00><80><00><00><00><19><FF><03><16><00><00><00><00><00><00><00><00><00><00><00><00><00><00><00><00><00><00><00><00><00><00>
[00][81][00][00][00][06][FF][01][17][DE][00][01]
Waiting for a confirmation...
<00><81><00><00><00><04><FF><01><01><00>
[00][82][00][00][00][06][FF][02][17][DF][00][01]
Waiting for a confirmation...
<00><82><00><00><00><04><FF><02><01><00>
[00][83][00][00][00][06][FF][04][1B][C5][00][01]
Waiting for a confirmation...
<00><83><00><00><00><05><FF><04><02><00><00>
[00][84][00][00][00][06][FF][03][1F][A4][00][0B]
Waiting for a confirmation...
<00><84><00><00><00><19><FF><03><16><00><00><00><00><00><00><00><00><00><00><00><00><00><00><00><00><00><00><00><00><00><00>
[00][85][00][00][00][06][FF][01][1F][AE][00][01]
Waiting for a confirmation...
<00><85><00><00><00><04><FF><01><01><00>
[00][86][00][00][00][06][FF][02][1F][AF][00][01]
Waiting for a confirmation...
<00><86><00><00><00><04><FF><02><01><00>
[00][87][00][00][00][06][FF][04][1F][AD][00][01]
Waiting for a confirmation...
<00><87><00><00><00><05><FF><04><02><00><00>
[00][88][00][00][00][06][FF][03][00][00][00][0B]
Waiting for a confirmation...
<00><88><00><00><00><19><FF><03><16><00><00><00><00><00><00><00><00><00><00><00><00><00><00><00><00><00><00><00><00><00><00>
[00][89][00][00][00][06][FF][03][00][6D][00][01]
Waiting for a confirmation...
<00><89><00><00><00><05><FF><03><02><00><00>
[00][8A][00][00][00][06][FF][03][04][4C][00][0B]
Waiting for a confirmation...
<00><8A><00><00><00><19><FF><03><16><00><00><00><00><00><00><00><00><00><00><00><00><00><00><00><00><00><00><00><00><00><00>
[00][8B][00][00][00][06][FF][01][04][56][00][01]
Waiting for a confirmation...
<00><8B><00><00><00><04><FF><01><01><00>
[00][8C][00][00][00][06][FF][02][04][57][00][01]
Waiting for a confirmation...
<00><8C><00><00><00><04><FF><02><01><00>
[00][8D][00][00][00][06][FF][04][08][3D][00][01]
Waiting for a confirmation...
<00><8D><00><00><00><05><FF><04><02><00><00>
[00][8E][00][00][00][06][FF][01][0C][26][00][01]
Waiting for a confirmation...
<00><8E><00><00><00><04><FF><01><01><00>
[00][8F][00][00][00][06][FF][02][0C][27][00][01]
Waiting for a confirmation...
<00><8F><00><00><00><04><FF><02><01><00>
[00][90][00][00][00][06][FF][04][10][0D][00][01]
Waiting for a confirmation...
<00><90><00><00><00><05><FF><04><02><00><00>
[00][91][00][00][00][06][FF][03][13][EC][00][0B]
Waiting for a confirmation...
<00><91><00><00><00><19><FF><03><16><00><00><00><00><00><00><00><00><00><00><00><00><00><00><00><00><00><00><00><00><00><00>
[00][92][00][00][00][06][FF][01][17][DE][00][01]
Wai >>>>>>>>>>>Polling total errors 0
about to poll component #4, mapping #2  device_id 255
 >>>>>>>>>>>Polling total errors 0
about to poll component #4, mapping #3  device_id 255
 >>>>>>>>>>>Polling total errors 0
 >>>>>>>>>>>Polling total errors 0
 >>>>>>>>>>>Polling total errors 0
 >>>>>>>>>>>Polling total errors 0
about to poll component #5, mapping #0  device_id 255
about to poll component #5, mapping #1  device_id 255
 >>>>>>>>>>>Polling total errors 0
about to poll component #5, mapping #2  device_id 255
 >>>>>>>>>>>Polling total errors 0
about to poll component #5, mapping #3  device_id 255
 >>>>>>>>>>>Polling total errors 0
about to poll component #6, mapping #0  device_id 255
 >>>>>>>>>>>Polling total errors 0
about to poll component #0, mapping #0  device_id 255
 >>>>>>>>>>>Polling total errors 0
 >>>>>>>>>>>Polling total errors 0
 >>>>>>>>>>>Polling total errors 0
 >>>>>>>>>>>Polling total errors 0
about to poll component #1, mapping #0  device_id 255
about to poll component #1, mapping #1  device_id 255
 >>>>>>>>>>>Polling total errors 0
about to poll component #1, mapping #2  device_id 255
 >>>>>>>>>>>Polling total errors 0
about to poll component #1, mapping #3  device_id 255
 >>>>>>>>>>>Polling total errors 0
about to poll component #2, mapping #0  device_id 255
 >>>>>>>>>>>Polling total errors 0
about to poll component #2, mapping #1  device_id 255
 >>>>>>>>>>>Polling total errors 0
about to poll component #3, mapping #0  device_id 255
 >>>>>>>>>>>Polling total errors 0
 >>>>>>>>>>>Polling total errors 0
 >>>>>>>>>>>Polling total errors 0
 >>>>>>>>>>>Polling total errors 0
about to poll component #4, mapping #0  device_id 255
about to poll component #4, mapping #1  device_id 255
 >>>>>>>>>>>Polling total errors 0
about to poll component #4, mapping #2  device_id 255
 >>>>>>>>>>>Polling total errors 0
about to poll component #4, mapping #3  device_id 255
 >>>>>>>>>>>Polling total errors 0
 >>>>>>>>>>>Polling total errors 0
 >>>>>>>>>>>Polling total errors 0
 >>>>>>>>>>>Polling total errors 0
about to poll component #5, mapping #0  device_id 255
about to poll component #5, mapping #1  device_id 255
 >>>>>>>>>>>Polling total errors 0
about to poll component #5, mapping #2  device_id 255
 >>>>>>>>>>>Polling total errors 0
about to poll component #5, mapping #3  device_id 255
 >>>>>>>>>>>Polling total errors 0
about to poll component #6, mapping #0  device_id 255
 >>>>>>>>>>>Polling total errors 0
about to poll component #0, mapping #0  device_id 255
 >>>>>>>>>>>Polling total errors 0
 >>>>>>>>>>>Polling total errors 0
 >>>>>>>>>>>Polling total errors 0
 >>>>>>>>>>>Polling total errors 0
about to poll component #1, mapping #0  device_id 255
about to poll component #1, mapping #1  device_id 255
 >>>>>>>>>>>Polling total errors 0
about to poll component #1, mapping #2  device_id 255
 >>>>>>>>>>>Polling total errors 0
about to poll component #1, mapping #3  device_id 255
ting for a confirmation...
<00><92><00><00><00><04><FF><01><01><00>
[00][93][00][00][00][06][FF][02][17][DF][00][01]
Waiting for a confirmation...
<00><93><00><00><00><04><FF><02><01><00>
[00][94][00][00][00][06][FF][04][1B][C5][00][01]
Waiting for a confirmation...
<00><94><00><00><00><05><FF><04><02><00><00>
[00][95][00][00][00][06][FF][03][1F][A4][00][0B]
Waiting for a confirmation...
<00><95><00><00><00><19><FF><03><16><00><00><00><00><00><00><00><00><00><00><00><00><00><00><00><00><00><00><00><00><00><00>
[00][96][00][00][00][06][FF][01][1F][AE][00][01]
Waiting for a confirmation...
<00><96><00><00><00><04><FF><01><01><00>
[00][97][00][00][00][06][FF][02][1F][AF][00][01]
Waiting for a confirmation...
<00><97><00><00><00><04><FF><02><01><00>
[00][98][00][00][00][06][FF][04][1F][AD][00][01]
Waiting for a confirmation...
<00><98><00><00><00><05><FF><04><02><00><00>
[00][99][00][00][00][06][FF][03][00][00][00][0B]
Waiting for a confirmation...
<00><99><00><00><00><19><FF><03><16><00><00><00><00><00><00><00><00><00><00><00><00><00><00><00><00><00><00><00><00><00><00>
[00][9A][00][00][00][06][FF][03][00][6D][00][01]
Waiting for a confirmation...
<00><9A><00><00><00><05><FF><03><02><00><00>
[00][9B][00][00][00][06][FF][03][04][4C][00][0B]
Waiting for a confirmation...
<00><9B><00><00><00><19><FF><03><16><00><00><00><00><00><00><00><00><00><00><00><00><00><00><00><00><00><00><00><00><00><00>
[00][9C][00][00][00][06][FF][01][04][56][00][01]
Waiting for a confirmation...
<00><9C><00><00><00><04><FF><01><01><00>
[00][9D][00][00][00][06][FF][02][04][57][00][01]
Waiting for a confirmation...
<00><9D><00><00><00><04><FF><02><01><00>
[00][9E][00][00][00][06][FF][04][08][3D][00][01]
Waiting for a confirmation...
<00><9E><00><00><00><05><FF><04><02><00><00>
[00][9F][00][00][00][06][FF][01][0C][26][00][01]
Waiting for a confirmation...
<00><9F><00><00><00><04><FF><01><01><00>
[00][A0][00][00][00][06][FF][02][0C][27][00][01]
Waiting for a confirmation...
<00><A0><00><00><00><04><FF><02><01><00>
[00][A1][00][00][00][06][FF][04][10][0D][00][01]
Waiting for a confirmation...
<00><A1><00><00><00><05><FF><04><02><00><00>
[00][A2][00][00][00][06][FF][03][13][EC][00][0B]
Waiting for a confirmation...
<00><A2><00><00><00><19><FF><03><16><00><00><00><00><00><00><00><00><00><00><00><00><00><00><00><00><00><00><00><00><00><00>
[00][A3][00][00][00][06][FF][01][17][DE][00][01]
Waiting for a confirmation...
<00><A3><00><00><00><04><FF><01><01><00>
[00][A4][00][00][00][06][FF][02][17][DF][00][01]
Waiting for a confirmation...
<00><A4><00><00><00><04><FF><02><01><00>
[00][A5][00][00][00][06][FF][04][1B][C5][00][01]
Waiting for a confirmation...
<00><A5><00><00><00><05><FF><04><02><00><00>
[00][A6][00][00][00][06][FF][03][1F][A4][00][0B]
Waiting for a confirmation...
<00><A6><00><00><00><19><FF><03><16><00><00><00><00><00><00><00><00><00><00><00><00><00><00><00><00><00><00><00><00><00><00>
[00][A7][00][00][00][06][FF][01][1F][AE][00][01]
Waiting for a confirmation...
<00><A7><00><00><00><04><FF><01><01><00>
[00][A8][00][00][00][06][FF][02][1F][AF][00][01]
Waiting for a confirmation...
<00><A8><00><00><00><04><FF><02><01><00>
[00][A9][00][00][00][06][FF][04][1F][AD][00][01]
Waiting for a confirmation...
<00><A9><00><00><00><05><FF><04><02><00><00>
[00][AA][00][00][00][06][FF][03][00][00][00][0B]
Waiting for a confirmation...
<00><AA><00><00><00><19><FF><03><16><00><00><00><00><00><00><00><00><00><00><00><00><00><00><00><00><00><00><00><00><00><00>
[00][AB][00][00][00][06][FF][03][00][6D][00][01]
Waiting for a confirmation...
<00><AB><00><00><00><05><FF><03><02><00><00>
[00][AC][00][00][00][06][FF][03][04][4C][00][0B]
Waiting for a confirmation...
<00><AC><00><00><00><19><FF><03><16><00><00><00><00><00><00><00><00><00><00><00><00><00><00><00><00><00><00><00><00><00><00>
[00][AD][00][00][00][06][FF][01][04][56][00][01]
Waiting for a confirmation...
<00><AD><00><00><00><04><FF><01><01><00>
[00][AE][00][00][00][06][FF][02][04][57][00][01]
Waiting for a confirmation...
<00><AE><00><00><00><04><FF><02><01><00>
[00][AF][00][00][00][06][FF][04][08][3D][00][01] >>>>>>>>>>>Polling total errors 0
about to poll component #2, mapping #0  device_id 255
 >>>>>>>>>>>Polling total errors 0
about to poll component #2, mapping #1  device_id 255
 >>>>>>>>>>>Polling total errors 0
 >>>>>>>>>>>Polling total errors 0
 >>>>>>>>>>>Polling total errors 0
 >>>>>>>>>>>Polling total errors 0
about to poll component #3, mapping #0  device_id 255
 >>>>>>>>>>>Polling total errors 0
about to poll component #4, mapping #0  device_id 255
about to poll component #4, mapping #1  device_id 255
 >>>>>>>>>>>Polling total errors 0
about to poll component #4, mapping #2  device_id 255
 >>>>>>>>>>>Polling total errors 0
about to poll component #4, mapping #3  device_id 255
 >>>>>>>>>>>Polling total errors 0
 >>>>>>>>>>>Polling total errors 0
 >>>>>>>>>>>Polling total errors 0
 >>>>>>>>>>>Polling total errors 0
about to poll component #5, mapping #0  device_id 255
about to poll component #5, mapping #1  device_id 255
 >>>>>>>>>>>Polling total errors 0
about to poll component #5, mapping #2  device_id 255
 >>>>>>>>>>>Polling total errors 0
about to poll component #5, mapping #3  device_id 255
 >>>>>>>>>>>Polling total errors 0
about to poll component #6, mapping #0  device_id 255
 >>>>>>>>>>>Polling total errors 0
about to poll component #0, mapping #0  device_id 255
 >>>>>>>>>>>Polling total errors 0
 >>>>>>>>>>>Polling total errors 0
 >>>>>>>>>>>Polling total errors 0
 >>>>>>>>>>>Polling total errors 0
about to poll component #1, mapping #0  device_id 255
about to poll component #1, mapping #1  device_id 255
 >>>>>>>>>>>Polling total errors 0
about to poll component #1, mapping #2  device_id 255
 >>>>>>>>>>>Polling total errors 0
about to poll component #1, mapping #3  device_id 255
 >>>>>>>>>>>Polling total errors 0
 >>>>>>>>>>>Polling total errors 0
 >>>>>>>>>>>Polling total errors 0
 >>>>>>>>>>>Polling total errors 0
about to poll component #2, mapping #0  device_id 255
about to poll component #2, mapping #1  device_id 255
 >>>>>>>>>>>Polling total errors 0
about to poll component #3, mapping #0  device_id 255
 >>>>>>>>>>>Polling total errors 0
 >>>>>>>>>>>Polling total errors 0
 >>>>>>>>>>>Polling total errors 0
 >>>>>>>>>>>Polling total errors 0
about to poll component #4, mapping #0  device_id 255
about to poll component #4, mapping #1  device_id 255
 >>>>>>>>>>>Polling total errors 0
about to poll component #4, mapping #2  device_id 255
 >>>>>>>>>>>Polling total errors 0
about to poll component #4, mapping #3  device_id 255
 >>>>>>>>>>>Polling total errors 0
 >>>>>>>>>>>Polling total errors 0
 >>>>>>>>>>>Polling total errors 0
 >>>>>>>>>>>Polling total errors 0
about to poll component #5, mapping #0  device_id 255
about to poll component #5, mapping #1  device_id 255
 >>>>>>>>>>>Polling total errors 0
about to poll component #5, mapping #2  device_id 255
 >>>>>>>>>>>Polling total errors 0
about to poll component #5, mapping #3  device_id 255
 >>>>>>>>>>>Polling total errors 0
about to poll component #6, mapping #0  device_id 255
 >>>>>>>>>>>Polling total errors 0

Waiting for a confirmation...
<00><AF><00><00><00><05><FF><04><02><00><00>
[00][B0][00][00][00][06][FF][01][0C][26][00][01]
Waiting for a confirmation...
<00><B0><00><00><00><04><FF><01><01><00>
[00][B1][00][00][00][06][FF][02][0C][27][00][01]
Waiting for a confirmation...
<00><B1><00><00><00><04><FF><02><01><00>
[00][B2][00][00][00][06][FF][04][10][0D][00][01]
Waiting for a confirmation...
<00><B2><00><00><00><05><FF><04><02><00><00>
[00][B3][00][00][00][06][FF][03][13][EC][00][0B]
Waiting for a confirmation...
<00><B3><00><00><00><19><FF><03><16><00><00><00><00><00><00><00><00><00><00><00><00><00><00><00><00><00><00><00><00><00><00>
[00][B4][00][00][00][06][FF][01][17][DE][00][01]
Waiting for a confirmation...
<00><B4><00><00><00><04><FF><01><01><00>
[00][B5][00][00][00][06][FF][02][17][DF][00][01]
Waiting for a confirmation...
<00><B5><00><00><00><04><FF><02><01><00>
[00][B6][00][00][00][06][FF][04][1B][C5][00][01]
Waiting for a confirmation...
<00><B6><00><00><00><05><FF><04><02><00><00>
[00][B7][00][00][00][06][FF][03][1F][A4][00][0B]
Waiting for a confirmation...
<00><B7><00><00><00><19><FF><03><16><00><00><00><00><00><00><00><00><00><00><00><00><00><00><00><00><00><00><00><00><00><00>
[00][B8][00][00][00][06][FF][01][1F][AE][00][01]
Waiting for a confirmation...
<00><B8><00><00><00><04><FF><01><01><00>
[00][B9][00][00][00][06][FF][02][1F][AF][00][01]
Waiting for a confirmation...
<00><B9><00><00><00><04><FF><02><01><00>
[00][BA][00][00][00][06][FF][04][1F][AD][00][01]
Waiting for a confirmation...
<00><BA><00><00><00><05><FF><04><02><00><00>
[00][BB][00][00][00][06][FF][03][00][00][00][0B]
Waiting for a confirmation...
<00><BB><00><00><00><19><FF><03><16><00><00><00><00><00><00><00><00><00><00><00><00><00><00><00><00><00><00><00><00><00><00>
[00][BC][00][00][00][06][FF][03][00][6D][00][01]
Waiting for a confirmation...
<00><BC><00><00><00><05><FF><03><02><00><00>
[00][BD][00][00][00][06][FF][03][04][4C][00][0B]
Waiting for a confirmation...
<00><BD><00><00><00><19><FF><03><16><00><00><00><00><00><00><00><00><00><00><00><00><00><00><00><00><00><00><00><00><00><00>
[00][BE][00][00][00][06][FF][01][04][56][00][01]
Waiting for a confirmation...
<00><BE><00><00><00><04><FF><01><01><00>
[00][BF][00][00][00][06][FF][02][04][57][00][01]
Waiting for a confirmation...
<00><BF><00><00><00><04><FF><02><01><00>
[00][C0][00][00][00][06][FF][04][08][3D][00][01]
Waiting for a confirmation...
<00><C0><00><00><00><05><FF><04><02><00><00>
[00][C1][00][00][00][06][FF][01][0C][26][00][01]
Waiting for a confirmation...
<00><C1><00><00><00><04><FF><01><01><00>
[00][C2][00][00][00][06][FF][02][0C][27][00][01]
Waiting for a confirmation...
<00><C2><00><00><00><04><FF><02><01><00>
[00][C3][00][00][00][06][FF][04][10][0D][00][01]
Waiting for a confirmation...
<00><C3><00><00><00><05><FF><04><02><00><00>
[00][C4][00][00][00][06][FF][03][13][EC][00][0B]
Waiting for a confirmation...
<00><C4><00><00><00><19><FF><03><16><00><00><00><00><00><00><00><00><00><00><00><00><00><00><00><00><00><00><00><00><00><00>
[00][C5][00][00][00][06][FF][01][17][DE][00][01]
Waiting for a confirmation...
<00><C5><00><00><00><04><FF><01><01><00>
[00][C6][00][00][00][06][FF][02][17][DF][00][01]
Waiting for a confirmation...
<00><C6><00><00><00><04><FF><02><01><00>
[00][C7][00][00][00][06][FF][04][1B][C5][00][01]
Waiting for a confirmation...
<00><C7><00><00><00><05><FF><04><02><00><00>
[00][C8][00][00][00][06][FF][03][1F][A4][00][0B]
Waiting for a confirmation...
<00><C8><00><00><00><19><FF><03><16><00><00><00><00><00><00><00><00><00><00><00><00><00><00><00><00><00><00><00><00><00><00>
[00][C9][00][00][00][06][FF][01][1F][AE][00][01]
Waiting for a confirmation...
<00><C9><00><00><00><04><FF><01><01><00>
[00][CA][00][00][00][06][FF][02][1F][AF][00][01]
Waiting for a confirmation...
<00><CA><00><00><00><04><FF><02><01><00>
[00][CB][00][00][00][06][FF][04][1F][AD][00][01]
Waiting for a confirmation...
<00><CB><00><00><00><05><FF><04><02><00><00>
[00][CC][00][00][00][06][FF][03][00][00][00][0B]
Waiting for a confirmation...
<00><CC><00><00><00><19><FF><03><16><00><00><about to poll component #0, mapping #0  device_id 255
 >>>>>>>>>>>Polling total errors 0
 >>>>>>>>>>>Polling total errors 0
 >>>>>>>>>>>Polling total errors 0
 >>>>>>>>>>>Polling total errors 0
about to poll component #1, mapping #0  device_id 255
about to poll component #1, mapping #1  device_id 255
 >>>>>>>>>>>Polling total errors 0
about to poll component #1, mapping #2  device_id 255
 >>>>>>>>>>>Polling total errors 0
about to poll component #1, mapping #3  device_id 255
 >>>>>>>>>>>Polling total errors 0
about to poll component #2, mapping #0  device_id 255
 >>>>>>>>>>>Polling total errors 0
about to poll component #2, mapping #1  device_id 255
 >>>>>>>>>>>Polling total errors 0
 >>>>>>>>>>>Polling total errors 0
 >>>>>>>>>>>Polling total errors 0
 >>>>>>>>>>>Polling total errors 0
about to poll component #3, mapping #0  device_id 255
 >>>>>>>>>>>Polling total errors 0
about to poll component #4, mapping #0  device_id 255
about to poll component #4, mapping #1  device_id 255
 >>>>>>>>>>>Polling total errors 0
about to poll component #4, mapping #2  device_id 255
 >>>>>>>>>>>Polling total errors 0
about to poll component #4, mapping #3  device_id 255
 >>>>>>>>>>>Polling total errors 0
 >>>>>>>>>>>Polling total errors 0
 >>>>>>>>>>>Polling total errors 0
 >>>>>>>>>>>Polling total errors 0
about to poll component #5, mapping #0  device_id 255
about to poll component #5, mapping #1  device_id 255
 >>>>>>>>>>>Polling total errors 0
about to poll component #5, mapping #2  device_id 255
 >>>>>>>>>>>Polling total errors 0
about to poll component #5, mapping #3  device_id 255
 >>>>>>>>>>>Polling total errors 0
about to poll component #6, mapping #0  device_id 255
 >>>>>>>>>>>Polling total errors 0
about to poll component #0, mapping #0  device_id 255
 >>>>>>>>>>>Polling total errors 0
 >>>>>>>>>>>Polling total errors 0
 >>>>>>>>>>>Polling total errors 0
 >>>>>>>>>>>Polling total errors 0
about to poll component #1, mapping #0  device_id 255
about to poll component #1, mapping #1  device_id 255
 >>>>>>>>>>>Polling total errors 0
about to poll component #1, mapping #2  device_id 255
 >>>>>>>>>>>Polling total errors 0
about to poll component #1, mapping #3  device_id 255
 >>>>>>>>>>>Polling total errors 0
 >>>>>>>>>>>Polling total errors 0
 >>>>>>>>>>>Polling total errors 0
 >>>>>>>>>>>Polling total errors 0
about to poll component #2, mapping #0  device_id 255
about to poll component #2, mapping #1  device_id 255
 >>>>>>>>>>>Polling total errors 0
about to poll component #3, mapping #0  device_id 255
 >>>>>>>>>>>Polling total errors 0
 >>>>>>>>>>>Polling total errors 0
 >>>>>>>>>>>Polling total errors 0
 >>>>>>>>>>>Polling total errors 0
about to poll component #4, mapping #0  device_id 255
about to poll component #4, mapping #1  device_id 255
 >>>>>>>>>>>Polling total errors 0
about to poll component #4, mapping #2  device_id 255
 >>>>>>>>>>>Polling total errors 0
about to poll component #4, mapping #3  device_id 255
 >>>>>>>>>>>Polling total errors 0
00><00><00><00><00><00><00><00><00><00><00><00><00><00><00><00><00><00><00><00>
[00][CD][00][00][00][06][FF][03][00][6D][00][01]
Waiting for a confirmation...
<00><CD><00><00><00><05><FF><03><02><00><00>
[00][CE][00][00][00][06][FF][03][04][4C][00][0B]
Waiting for a confirmation...
<00><CE><00><00><00><19><FF><03><16><00><00><00><00><00><00><00><00><00><00><00><00><00><00><00><00><00><00><00><00><00><00>
[00][CF][00][00][00][06][FF][01][04][56][00][01]
Waiting for a confirmation...
<00><CF><00><00><00><04><FF><01><01><00>
[00][D0][00][00][00][06][FF][02][04][57][00][01]
Waiting for a confirmation...
<00><D0><00><00><00><04><FF><02><01><00>
[00][D1][00][00][00][06][FF][04][08][3D][00][01]
Waiting for a confirmation...
<00><D1><00><00><00><05><FF><04><02><00><00>
[00][D2][00][00][00][06][FF][01][0C][26][00][01]
Waiting for a confirmation...
<00><D2><00><00><00><04><FF><01><01><00>
[00][D3][00][00][00][06][FF][02][0C][27][00][01]
Waiting for a confirmation...
<00><D3><00><00><00><04><FF><02><01><00>
[00][D4][00][00][00][06][FF][04][10][0D][00][01]
Waiting for a confirmation...
<00><D4><00><00><00><05><FF><04><02><00><00>
[00][D5][00][00][00][06][FF][03][13][EC][00][0B]
Waiting for a confirmation...
<00><D5><00><00><00><19><FF><03><16><00><00><00><00><00><00><00><00><00><00><00><00><00><00><00><00><00><00><00><00><00><00>
[00][D6][00][00][00][06][FF][01][17][DE][00][01]
Waiting for a confirmation...
<00><D6><00><00><00><04><FF><01><01><00>
[00][D7][00][00][00][06][FF][02][17][DF][00][01]
Waiting for a confirmation...
<00><D7><00><00><00><04><FF><02><01><00>
[00][D8][00][00][00][06][FF][04][1B][C5][00][01]
Waiting for a confirmation...
<00><D8><00><00><00><05><FF><04><02><00><00>
[00][D9][00][00][00][06][FF][03][1F][A4][00][0B]
Waiting for a confirmation...
<00><D9><00><00><00><19><FF><03><16><00><00><00><00><00><00><00><00><00><00><00><00><00><00><00><00><00><00><00><00><00><00>
[00][DA][00][00][00][06][FF][01][1F][AE][00][01]
Waiting for a confirmation...
<00><DA><00><00><00><04><FF><01><01><00>
[00][DB][00][00][00][06][FF][02][1F][AF][00][01]
Waiting for a confirmation...
<00><DB><00><00><00><04><FF><02><01><00>
[00][DC][00][00][00][06][FF][04][1F][AD][00][01]
Waiting for a confirmation...
<00><DC><00><00><00><05><FF><04><02><00><00>
[00][DD][00][00][00][06][FF][03][00][00][00][0B]
Waiting for a confirmation...
<00><DD><00><00><00><19><FF><03><16><00><00><00><00><00><00><00><00><00><00><00><00><00><00><00><00><00><00><00><00><00><00>
[00][DE][00][00][00][06][FF][03][00][6D][00][01]
Waiting for a confirmation...
<00><DE><00><00><00><05><FF><03><02><00><00>
[00][DF][00][00][00][06][FF][03][04][4C][00][0B]
Waiting for a confirmation...
<00><DF><00><00><00><19><FF><03><16><00><00><00><00><00><00><00><00><00><00><00><00><00><00><00><00><00><00><00><00><00><00>
[00][E0][00][00][00][06][FF][01][04][56][00][01]
Waiting for a confirmation...
<00><E0><00><00><00><04><FF><01><01><00>
[00][E1][00][00][00][06][FF][02][04][57][00][01]
Waiting for a confirmation...
<00><E1><00><00><00><04><FF><02><01><00>
[00][E2][00][00][00][06][FF][04][08][3D][00][01]
Waiting for a confirmation...
<00><E2><00><00><00><05><FF><04><02><00><00>
[00][E3][00][00][00][06][FF][01][0C][26][00][01]
Waiting for a confirmation...
<00><E3><00><00><00><04><FF><01><01><00>
[00][E4][00][00][00][06][FF][02][0C][27][00][01]
Waiting for a confirmation...
<00><E4><00><00><00><04><FF><02><01><00>
[00][E5][00][00][00][06][FF][04][10][0D][00][01]
Waiting for a confirmation...
<00><E5><00><00><00><05><FF><04><02><00><00>
[00][E6][00][00][00][06][FF][03][13][EC][00][0B]
Waiting for a confirmation...
<00><E6><00><00><00><19><FF><03><16><00><00><00><00><00><00><00><00><00><00><00><00><00><00><00><00><00><00><00><00><00><00>
[00][E7][00][00][00][06][FF][01][17][DE][00][01]
Waiting for a confirmation...
<00><E7><00><00><00><04><FF><01><01><00>
[00][E8][00][00][00][06][FF][02][17][DF][00][01]
Waiting for a confirmation...
<00><E8><00><00><00><04><FF><02><01><00>
[00][E9][00][00][00][06][FF][04][1B][C5][00][01]
Waiting for a confirmation...
<00><E9><00><00><00><05><FF><04><02><00>< >>>>>>>>>>>Polling total errors 0
 >>>>>>>>>>>Polling total errors 0
 >>>>>>>>>>>Polling total errors 0
about to poll component #5, mapping #0  device_id 255
about to poll component #5, mapping #1  device_id 255
 >>>>>>>>>>>Polling total errors 0
about to poll component #5, mapping #2  device_id 255
 >>>>>>>>>>>Polling total errors 0
about to poll component #5, mapping #3  device_id 255
 >>>>>>>>>>>Polling total errors 0
about to poll component #6, mapping #0  device_id 255
 >>>>>>>>>>>Polling total errors 0
about to poll component #0, mapping #0  device_id 255
 >>>>>>>>>>>Polling total errors 0
 >>>>>>>>>>>Polling total errors 0
 >>>>>>>>>>>Polling total errors 0
 >>>>>>>>>>>Polling total errors 0
about to poll component #1, mapping #0  device_id 255
about to poll component #1, mapping #1  device_id 255
 >>>>>>>>>>>Polling total errors 0
about to poll component #1, mapping #2  device_id 255
 >>>>>>>>>>>Polling total errors 0
about to poll component #1, mapping #3  device_id 255
 >>>>>>>>>>>Polling total errors 0
about to poll component #2, mapping #0  device_id 255
 >>>>>>>>>>>Polling total errors 0
about to poll component #2, mapping #1  device_id 255
 >>>>>>>>>>>Polling total errors 0
 >>>>>>>>>>>Polling total errors 0
 >>>>>>>>>>>Polling total errors 0
 >>>>>>>>>>>Polling total errors 0
about to poll component #3, mapping #0  device_id 255
 >>>>>>>>>>>Polling total errors 0
 >>>>>>>>>>>Polling total errors 0
 >>>>>>>>>>>Polling total errors 0
about to poll component #4, mapping #0  device_id 255
about to poll component #4, mapping #1  device_id 255
 >>>>>>>>>>>Polling total errors 0
about to poll component #4, mapping #2  device_id 255
 >>>>>>>>>>>Polling total errors 0
about to poll component #4, mapping #3  device_id 255
 >>>>>>>>>>>Polling total errors 0
 >>>>>>>>>>>Polling total errors 0
 >>>>>>>>>>>Polling total errors 0
 >>>>>>>>>>>Polling total errors 0
about to poll component #5, mapping #0  device_id 255
about to poll component #5, mapping #1  device_id 255
 >>>>>>>>>>>Polling total errors 0
about to poll component #5, mapping #2  device_id 255
 >>>>>>>>>>>Polling total errors 0
about to poll component #5, mapping #3  device_id 255
 >>>>>>>>>>>Polling total errors 0
about to poll component #6, mapping #0  device_id 255
 >>>>>>>>>>>Polling total errors 0
about to poll component #0, mapping #0  device_id 255
 >>>>>>>>>>>Polling total errors 0
 >>>>>>>>>>>Polling total errors 0
 >>>>>>>>>>>Polling total errors 0
 >>>>>>>>>>>Polling total errors 0
about to poll component #1, mapping #0  device_id 255
about to poll component #1, mapping #1  device_id 255
 >>>>>>>>>>>Polling total errors 0
about to poll component #1, mapping #2  device_id 255
 >>>>>>>>>>>Polling total errors 0
about to poll component #1, mapping #3  device_id 255
 >>>>>>>>>>>Polling total errors 0
about to poll component #2, mapping #0  device_id 255
 >>>>>>>>>>>Polling total errors 0
about to poll component #2, mapping #1  device_id 255
 >>>>>>>>>>>Polling total errors 0
00>
[00][EA][00][00][00][06][FF][03][1F][A4][00][0B]
Waiting for a confirmation...
<00><EA><00><00><00><19><FF><03><16><00><00><00><00><00><00><00><00><00><00><00><00><00><00><00><00><00><00><00><00><00><00>
[00][EB][00][00][00][06][FF][01][1F][AE][00][01]
Waiting for a confirmation...
<00><EB><00><00><00><04><FF><01><01><00>
[00][EC][00][00][00][06][FF][02][1F][AF][00][01]
Waiting for a confirmation...
<00><EC><00><00><00><04><FF><02><01><00>
[00][ED][00][00][00][06][FF][04][1F][AD][00][01]
Waiting for a confirmation...
<00><ED><00><00><00><05><FF><04><02><00><00>
[00][EE][00][00][00][06][FF][03][00][00][00][0B]
Waiting for a confirmation...
<00><EE><00><00><00><19><FF><03><16><00><00><00><00><00><00><00><00><00><00><00><00><00><00><00><00><00><00><00><00><00><00>
[00][EF][00][00][00][06][FF][03][00][6D][00][01]
Waiting for a confirmation...
<00><EF><00><00><00><05><FF><03><02><00><00>
[00][F0][00][00][00][06][FF][03][04][4C][00][0B]
Waiting for a confirmation...
<00><F0><00><00><00><19><FF><03><16><00><00><00><00><00><00><00><00><00><00><00><00><00><00><00><00><00><00><00><00><00><00>
[00][F1][00][00][00][06][FF][01][04][56][00][01]
Waiting for a confirmation...
<00><F1><00><00><00><04><FF><01><01><00>
[00][F2][00][00][00][06][FF][02][04][57][00][01]
Waiting for a confirmation...
<00><F2><00><00><00><04><FF><02><01><00>
[00][F3][00][00][00][06][FF][04][08][3D][00][01]
Waiting for a confirmation...
<00><F3><00><00><00><05><FF><04><02><00><00>
[00][F4][00][00][00][06][FF][01][0C][26][00][01]
Waiting for a confirmation...
<00><F4><00><00><00><04><FF><01><01><00>
[00][F5][00][00][00][06][FF][02][0C][27][00][01]
Waiting for a confirmation...
<00><F5><00><00><00><04><FF><02><01><00>
[00][F6][00][00][00][06][FF][04][10][0D][00][01]
Waiting for a confirmation...
<00><F6><00><00><00><05><FF><04><02><00><00>
[00][F7][00][00][00][06][FF][03][13][EC][00][0B]
Waiting for a confirmation...
<00><F7><00><00><00><19><FF><03><16><00><00><00><00><00><00><00><00><00><00><00><00><00><00><00><00><00><00><00><00><00><00>
[00][F8][00][00][00][06][FF][01][17][DE][00][01]
Waiting for a confirmation...
<00><F8><00><00><00><04><FF><01><01><00>
[00][F9][00][00][00][06][FF][02][17][DF][00][01]
Waiting for a confirmation...
<00><F9><00><00><00><04><FF><02><01><00>
[00][FA][00][00][00][06][FF][04][1B][C5][00][01]
Waiting for a confirmation...
<00><FA><00><00><00><05><FF><04><02><00><00>
[00][FB][00][00][00][06][FF][03][1F][A4][00][0B]
Waiting for a confirmation...
<00><FB><00><00><00><19><FF><03><16><00><00><00><00><00><00><00><00><00><00><00><00><00><00><00><00><00><00><00><00><00><00>
[00][FC][00][00][00][06][FF][01][1F][AE][00][01]
Waiting for a confirmation...
<00><FC><00><00><00><04><FF><01><01><00>
[00][FD][00][00][00][06][FF][02][1F][AF][00][01]
Waiting for a confirmation...
<00><FD><00><00><00><04><FF><02><01><00>
[00][FE][00][00][00][06][FF][04][1F][AD][00][01]
Waiting for a confirmation...
<00><FE><00><00><00><05><FF><04><02><00><00>
[00][FF][00][00][00][06][FF][03][00][00][00][0B]
Waiting for a confirmation...
<00><FF><00><00><00><19><FF><03><16><00><00><00><00><00><00><00><00><00><00><00><00><00><00><00><00><00><00><00><00><00><00>
[01][00][00][00][00][06][FF][03][00][6D][00][01]
Waiting for a confirmation...
<01><00><00><00><00><05><FF><03><02><00><00>
[01][01][00][00][00][06][FF][03][04][4C][00][0B]
Waiting for a confirmation...
<01><01><00><00><00><19><FF><03><16><00><00><00><00><00><00><00><00><00><00><00><00><00><00><00><00><00><00><00><00><00><00>
[01][02][00][00][00][06][FF][01][04][56][00][01]
Waiting for a confirmation...
<01><02><00><00><00><04><FF><01><01><00>
[01][03][00][00][00][06][FF][02][04][57][00][01]
Waiting for a confirmation...
<01><03><00><00><00><04><FF><02><01><00>
[01][04][00][00][00][06][FF][04][08][3D][00][01]
Waiting for a confirmation...
<01><04><00><00><00><05><FF><04><02><00><00>
[01][05][00][00][00][06][FF][01][0C][26][00][01]
Waiting for a confirmation...
<01><05><00><00><00><04><FF><01><01><00>
[01][06][00][00][00][06][FF][02][0C][27][00][01]
Waiting for a confirmation...
<01><06><00><00><00><04><FF><02><about to poll component #3, mapping #0  device_id 255
 >>>>>>>>>>>Polling total errors 0
 >>>>>>>>>>>Polling total errors 0
 >>>>>>>>>>>Polling total errors 0
 >>>>>>>>>>>Polling total errors 0
about to poll component #4, mapping #0  device_id 255
about to poll component #4, mapping #1  device_id 255
 >>>>>>>>>>>Polling total errors 0
about to poll component #4, mapping #2  device_id 255
 >>>>>>>>>>>Polling total errors 0
about to poll component #4, mapping #3  device_id 255
 >>>>>>>>>>>Polling total errors 0
 >>>>>>>>>>>Polling total errors 0
 >>>>>>>>>>>Polling total errors 0
 >>>>>>>>>>>Polling total errors 0
about to poll component #5, mapping #0  device_id 255
about to poll component #5, mapping #1  device_id 255
 >>>>>>>>>>>Polling total errors 0
about to poll component #5, mapping #2  device_id 255
 >>>>>>>>>>>Polling total errors 0
about to poll component #5, mapping #3  device_id 255
 >>>>>>>>>>>Polling total errors 0
about to poll component #6, mapping #0  device_id 255
 >>>>>>>>>>>Polling total errors 0
about to poll component #0, mapping #0  device_id 255
 >>>>>>>>>>>Polling total errors 0
 >>>>>>>>>>>Polling total errors 0
 >>>>>>>>>>>Polling total errors 0
 >>>>>>>>>>>Polling total errors 0
about to poll component #1, mapping #0  device_id 255
about to poll component #1, mapping #1  device_id 255
 >>>>>>>>>>>Polling total errors 0
about to poll component #1, mapping #2  device_id 255
 >>>>>>>>>>>Polling total errors 0
about to poll component #1, mapping #3  device_id 255
 >>>>>>>>>>>Polling total errors 0
about to poll component #2, mapping #0  device_id 255
 >>>>>>>>>>>Polling total errors 0
about to poll component #2, mapping #1  device_id 255
 >>>>>>>>>>>Polling total errors 0
 >>>>>>>>>>>Polling total errors 0
 >>>>>>>>>>>Polling total errors 0
 >>>>>>>>>>>Polling total errors 0
about to poll component #3, mapping #0  device_id 255
 >>>>>>>>>>>Polling total errors 0
about to poll component #4, mapping #0  device_id 255
about to poll component #4, mapping #1  device_id 255
 >>>>>>>>>>>Polling total errors 0
about to poll component #4, mapping #2  device_id 255
 >>>>>>>>>>>Polling total errors 0
about to poll component #4, mapping #3  device_id 255
 >>>>>>>>>>>Polling total errors 0
 >>>>>>>>>>>Polling total errors 0
 >>>>>>>>>>>Polling total errors 0
 >>>>>>>>>>>Polling total errors 0
about to poll component #5, mapping #0  device_id 255
about to poll component #5, mapping #1  device_id 255
 >>>>>>>>>>>Polling total errors 0
about to poll component #5, mapping #2  device_id 255
 >>>>>>>>>>>Polling total errors 0
about to poll component #5, mapping #3  device_id 255
 >>>>>>>>>>>Polling total errors 0
about to poll component #6, mapping #0  device_id 255
 >>>>>>>>>>>Polling total errors 0
about to poll component #0, mapping #0  device_id 255
 >>>>>>>>>>>Polling total errors 0
 >>>>>>>>>>>Polling total errors 0
 >>>>>>>>>>>Polling total errors 0
 >>>>>>>>>>>Polling total errors 0
about to poll component #1, mapping #0  device_id 255
01><00>
[01][07][00][00][00][06][FF][04][10][0D][00][01]
Waiting for a confirmation...
<01><07><00><00><00><05><FF><04><02><00><00>
[01][08][00][00][00][06][FF][03][13][EC][00][0B]
Waiting for a confirmation...
<01><08><00><00><00><19><FF><03><16><00><00><00><00><00><00><00><00><00><00><00><00><00><00><00><00><00><00><00><00><00><00>
[01][09][00][00][00][06][FF][01][17][DE][00][01]
Waiting for a confirmation...
<01><09><00><00><00><04><FF><01><01><00>
[01][0A][00][00][00][06][FF][02][17][DF][00][01]
Waiting for a confirmation...
<01><0A><00><00><00><04><FF><02><01><00>
[01][0B][00][00][00][06][FF][04][1B][C5][00][01]
Waiting for a confirmation...
<01><0B><00><00><00><05><FF><04><02><00><00>
[01][0C][00][00][00][06][FF][03][1F][A4][00][0B]
Waiting for a confirmation...
<01><0C><00><00><00><19><FF><03><16><00><00><00><00><00><00><00><00><00><00><00><00><00><00><00><00><00><00><00><00><00><00>
[01][0D][00][00][00][06][FF][01][1F][AE][00][01]
Waiting for a confirmation...
<01><0D><00><00><00><04><FF><01><01><00>
[01][0E][00][00][00][06][FF][02][1F][AF][00][01]
Waiting for a confirmation...
<01><0E><00><00><00><04><FF><02><01><00>
[01][0F][00][00][00][06][FF][04][1F][AD][00][01]
Waiting for a confirmation...
<01><0F><00><00><00><05><FF><04><02><00><00>
[01][10][00][00][00][06][FF][03][00][00][00][0B]
Waiting for a confirmation...
<01><10><00><00><00><19><FF><03><16><00><00><00><00><00><00><00><00><00><00><00><00><00><00><00><00><00><00><00><00><00><00>
[01][11][00][00][00][06][FF][03][00][6D][00][01]
Waiting for a confirmation...
<01><11><00><00><00><05><FF><03><02><00><00>
[01][12][00][00][00][06][FF][03][04][4C][00][0B]
Waiting for a confirmation...
<01><12><00><00><00><19><FF><03><16><00><00><00><00><00><00><00><00><00><00><00><00><00><00><00><00><00><00><00><00><00><00>
[01][13][00][00][00][06][FF][01][04][56][00][01]
Waiting for a confirmation...
<01><13><00><00><00><04><FF><01><01><00>
[01][14][00][00][00][06][FF][02][04][57][00][01]
Waiting for a confirmation...
<01><14><00><00><00><04><FF><02><01><00>
[01][15][00][00][00][06][FF][04][08][3D][00][01]
Waiting for a confirmation...
<01><15><00><00><00><05><FF><04><02><00><00>
[01][16][00][00][00][06][FF][01][0C][26][00][01]
Waiting for a confirmation...
<01><16><00><00><00><04><FF><01><01><00>
[01][17][00][00][00][06][FF][02][0C][27][00][01]
Waiting for a confirmation...
<01><17><00><00><00><04><FF><02><01><00>
[01][18][00][00][00][06][FF][04][10][0D][00][01]
Waiting for a confirmation...
<01><18><00><00><00><05><FF><04><02><00><00>
[01][19][00][00][00][06][FF][03][13][EC][00][0B]
Waiting for a confirmation...
<01><19><00><00><00><19><FF><03><16><00><00><00><00><00><00><00><00><00><00><00><00><00><00><00><00><00><00><00><00><00><00>
[01][1A][00][00][00][06][FF][01][17][DE][00][01]
Waiting for a confirmation...
<01><1A><00><00><00><04><FF><01><01><00>
[01][1B][00][00][00][06][FF][02][17][DF][00][01]
Waiting for a confirmation...
<01><1B><00><00><00><04><FF><02><01><00>
[01][1C][00][00][00][06][FF][04][1B][C5][00][01]
Waiting for a confirmation...
<01><1C><00><00><00><05><FF><04><02><00><00>
[01][1D][00][00][00][06][FF][03][1F][A4][00][0B]
Waiting for a confirmation...
<01><1D><00><00><00><19><FF><03><16><00><00><00><00><00><00><00><00><00><00><00><00><00><00><00><00><00><00><00><00><00><00>
[01][1E][00][00][00][06][FF][01][1F][AE][00][01]
Waiting for a confirmation...
<01><1E><00><00><00><04><FF><01><01><00>
[01][1F][00][00][00][06][FF][02][1F][AF][00][01]
Waiting for a confirmation...
<01><1F><00><00><00><04><FF><02><01><00>
[01][20][00][00][00][06][FF][04][1F][AD][00][01]
Waiting for a confirmation...
<01><20><00><00><00><05><FF><04><02><00><00>
[01][21][00][00][00][06][FF][03][00][00][00][0B]
Waiting for a confirmation...
<01><21><00><00><00><19><FF><03><16><00><00><00><00><00><00><00><00><00><00><00><00><00><00><00><00><00><00><00><00><00><00>
[01][22][00][00][00][06][FF][03][00][6D][00][01]
Waiting for a confirmation...
<01><22><00><00><00><05><FF><03><02><00><00>
[01][23][00][00][00][06][FF][03][04][4C][00][0B]
Waiting for a confirmation...
<01><23><00><00><00><19><about to poll component #1, mapping #1  device_id 255
 >>>>>>>>>>>Polling total errors 0
about to poll component #1, mapping #2  device_id 255
 >>>>>>>>>>>Polling total errors 0
about to poll component #1, mapping #3  device_id 255
 >>>>>>>>>>>Polling total errors 0
 >>>>>>>>>>>Polling total errors 0
 >>>>>>>>>>>Polling total errors 0
 >>>>>>>>>>>Polling total errors 0
about to poll component #2, mapping #0  device_id 255
about to poll component #2, mapping #1  device_id 255
 >>>>>>>>>>>Polling total errors 0
about to poll component #3, mapping #0  device_id 255
 >>>>>>>>>>>Polling total errors 0
 >>>>>>>>>>>Polling total errors 0
 >>>>>>>>>>>Polling total errors 0
 >>>>>>>>>>>Polling total errors 0
about to poll component #4, mapping #0  device_id 255
about to poll component #4, mapping #1  device_id 255
 >>>>>>>>>>>Polling total errors 0
about to poll component #4, mapping #2  device_id 255
 >>>>>>>>>>>Polling total errors 0
about to poll component #4, mapping #3  device_id 255
 >>>>>>>>>>>Polling total errors 0
 >>>>>>>>>>>Polling total errors 0
 >>>>>>>>>>>Polling total errors 0
 >>>>>>>>>>>Polling total errors 0
about to poll component #5, mapping #0  device_id 255
about to poll component #5, mapping #1  device_id 255
 >>>>>>>>>>>Polling total errors 0
about to poll component #5, mapping #2  device_id 255
 >>>>>>>>>>>Polling total errors 0
about to poll component #5, mapping #3  device_id 255
 >>>>>>>>>>>Polling total errors 0
about to poll component #6, mapping #0  device_id 255
 >>>>>>>>>>>Polling total errors 0
about to poll component #0, mapping #0  device_id 255
 >>>>>>>>>>>Polling total errors 0
 >>>>>>>>>>>Polling total errors 0
 >>>>>>>>>>>Polling total errors 0
 >>>>>>>>>>>Polling total errors 0
about to poll component #1, mapping #0  device_id 255
about to poll component #1, mapping #1  device_id 255
 >>>>>>>>>>>Polling total errors 0
about to poll component #1, mapping #2  device_id 255
 >>>>>>>>>>>Polling total errors 0
about to poll component #1, mapping #3  device_id 255
 >>>>>>>>>>>Polling total errors 0
about to poll component #2, mapping #0  device_id 255
 >>>>>>>>>>>Polling total errors 0
about to poll component #2, mapping #1  device_id 255
 >>>>>>>>>>>Polling total errors 0
 >>>>>>>>>>>Polling total errors 0
 >>>>>>>>>>>Polling total errors 0
 >>>>>>>>>>>Polling total errors 0
about to poll component #3, mapping #0  device_id 255
 >>>>>>>>>>>Polling total errors 0
about to poll component #4, mapping #0  device_id 255
about to poll component #4, mapping #1  device_id 255
 >>>>>>>>>>>Polling total errors 0
about to poll component #4, mapping #2  device_id 255
 >>>>>>>>>>>Polling total errors 0
about to poll component #4, mapping #3  device_id 255
 >>>>>>>>>>>Polling total errors 0
 >>>>>>>>>>>Polling total errors 0
 >>>>>>>>>>>Polling total errors 0
 >>>>>>>>>>>Polling total errors 0
about to poll component #5, mapping #0  device_id 255
about to poll component #5, mapping #1  device_id 255
 >>>>>>>>>>>Polling total errors 0
FF><03><16><00><00><00><00><00><00><00><00><00><00><00><00><00><00><00><00><00><00><00><00><00><00>
[01][24][00][00][00][06][FF][01][04][56][00][01]
Waiting for a confirmation...
<01><24><00><00><00><04><FF><01><01><00>
[01][25][00][00][00][06][FF][02][04][57][00][01]
Waiting for a confirmation...
<01><25><00><00><00><04><FF><02><01><00>
[01][26][00][00][00][06][FF][04][08][3D][00][01]
Waiting for a confirmation...
<01><26><00><00><00><05><FF><04><02><00><00>
[01][27][00][00][00][06][FF][01][0C][26][00][01]
Waiting for a confirmation...
<01><27><00><00><00><04><FF><01><01><00>
[01][28][00][00][00][06][FF][02][0C][27][00][01]
Waiting for a confirmation...
<01><28><00><00><00><04><FF><02><01><00>
[01][29][00][00][00][06][FF][04][10][0D][00][01]
Waiting for a confirmation...
<01><29><00><00><00><05><FF><04><02><00><00>
[01][2A][00][00][00][06][FF][03][13][EC][00][0B]
Waiting for a confirmation...
<01><2A><00><00><00><19><FF><03><16><00><00><00><00><00><00><00><00><00><00><00><00><00><00><00><00><00><00><00><00><00><00>
[01][2B][00][00][00][06][FF][01][17][DE][00][01]
Waiting for a confirmation...
<01><2B><00><00><00><04><FF><01><01><00>
[01][2C][00][00][00][06][FF][02][17][DF][00][01]
Waiting for a confirmation...
<01><2C><00><00><00><04><FF><02><01><00>
[01][2D][00][00][00][06][FF][04][1B][C5][00][01]
Waiting for a confirmation...
<01><2D><00><00><00><05><FF><04><02><00><00>
[01][2E][00][00][00][06][FF][03][1F][A4][00][0B]
Waiting for a confirmation...
<01><2E><00><00><00><19><FF><03><16><00><00><00><00><00><00><00><00><00><00><00><00><00><00><00><00><00><00><00><00><00><00>
[01][2F][00][00][00][06][FF][01][1F][AE][00][01]
Waiting for a confirmation...
<01><2F><00><00><00><04><FF><01><01><00>
[01][30][00][00][00][06][FF][02][1F][AF][00][01]
Waiting for a confirmation...
<01><30><00><00><00><04><FF><02><01><00>
[01][31][00][00][00][06][FF][04][1F][AD][00][01]
Waiting for a confirmation...
<01><31><00><00><00><05><FF><04><02><00><00>
[01][32][00][00][00][06][FF][03][00][00][00][0B]
Waiting for a confirmation...
<01><32><00><00><00><19><FF><03><16><00><00><00><00><00><00><00><00><00><00><00><00><00><00><00><00><00><00><00><00><00><00>
[01][33][00][00][00][06][FF][03][00][6D][00][01]
Waiting for a confirmation...
<01><33><00><00><00><05><FF><03><02><00><00>
[01][34][00][00][00][06][FF][03][04][4C][00][0B]
Waiting for a confirmation...
<01><34><00><00><00><19><FF><03><16><00><00><00><00><00><00><00><00><00><00><00><00><00><00><00><00><00><00><00><00><00><00>
[01][35][00][00][00][06][FF][01][04][56][00][01]
Waiting for a confirmation...
<01><35><00><00><00><04><FF><01><01><00>
[01][36][00][00][00][06][FF][02][04][57][00][01]
Waiting for a confirmation...
<01><36><00><00><00><04><FF><02><01><00>
[01][37][00][00][00][06][FF][04][08][3D][00][01]
Waiting for a confirmation...
<01><37><00><00><00><05><FF><04><02><00><00>
[01][38][00][00][00][06][FF][01][0C][26][00][01]
Waiting for a confirmation...
<01><38><00><00><00><04><FF><01><01><00>
[01][39][00][00][00][06][FF][02][0C][27][00][01]
Waiting for a confirmation...
<01><39><00><00><00><04><FF><02><01><00>
[01][3A][00][00][00][06][FF][04][10][0D][00][01]
Waiting for a confirmation...
<01><3A><00><00><00><05><FF><04><02><00><00>
[01][3B][00][00][00][06][FF][03][13][EC][00][0B]
Waiting for a confirmation...
<01><3B><00><00><00><19><FF><03><16><00><00><00><00><00><00><00><00><00><00><00><00><00><00><00><00><00><00><00><00><00><00>
[01][3C][00][00][00][06][FF][01][17][DE][00][01]
Waiting for a confirmation...
<01><3C><00><00><00><04><FF><01><01><00>
[01][3D][00][00][00][06][FF][02][17][DF][00][01]
Waiting for a confirmation...
<01><3D><00><00><00><04><FF><02><01><00>
[01][3E][00][00][00][06][FF][04][1B][C5][00][01]
Waiting for a confirmation...
<01><3E><00><00><00><05><FF><04><02><00><00>
[01][3F][00][00][00][06][FF][03][1F][A4][00][0B]
Waiting for a confirmation...
<01><3F><00><00><00><19><FF><03><16><00><00><00><00><00><00><00><00><00><00><00><00><00><00><00><00><00><00><00><00><00><00>
[01][40][00][00][00][06][FF][01][1F][AE][00][01]
Waiting for a confirmation...
<01><40><00><00><00><about to poll component #5, mapping #2  device_id 255
 >>>>>>>>>>>Polling total errors 0
about to poll component #5, mapping #3  device_id 255
 >>>>>>>>>>>Polling total errors 0
about to poll component #6, mapping #0  device_id 255
 >>>>>>>>>>>Polling total errors 0
about to poll component #0, mapping #0  device_id 255
 >>>>>>>>>>>Polling total errors 0
 >>>>>>>>>>>Polling total errors 0
 >>>>>>>>>>>Polling total errors 0
 >>>>>>>>>>>Polling total errors 0
about to poll component #1, mapping #0  device_id 255
about to poll component #1, mapping #1  device_id 255
 >>>>>>>>>>>Polling total errors 0
about to poll component #1, mapping #2  device_id 255
 >>>>>>>>>>>Polling total errors 0
about to poll component #1, mapping #3  device_id 255
 >>>>>>>>>>>Polling total errors 0
 >>>>>>>>>>>Polling total errors 0
 >>>>>>>>>>>Polling total errors 0
 >>>>>>>>>>>Polling total errors 0
about to poll component #2, mapping #0  device_id 255
about to poll component #2, mapping #1  device_id 255
 >>>>>>>>>>>Polling total errors 0
about to poll component #3, mapping #0  device_id 255
 >>>>>>>>>>>Polling total errors 0
 >>>>>>>>>>>Polling total errors 0
 >>>>>>>>>>>Polling total errors 0
 >>>>>>>>>>>Polling total errors 0
about to poll component #4, mapping #0  device_id 255
about to poll component #4, mapping #1  device_id 255
 >>>>>>>>>>>Polling total errors 0
about to poll component #4, mapping #2  device_id 255
 >>>>>>>>>>>Polling total errors 0
about to poll component #4, mapping #3  device_id 255
 >>>>>>>>>>>Polling total errors 0
 >>>>>>>>>>>Polling total errors 0
 >>>>>>>>>>>Polling total errors 0
 >>>>>>>>>>>Polling total errors 0
about to poll component #5, mapping #0  device_id 255
about to poll component #5, mapping #1  device_id 255
 >>>>>>>>>>>Polling total errors 0
about to poll component #5, mapping #2  device_id 255
 >>>>>>>>>>>Polling total errors 0
about to poll component #5, mapping #3  device_id 255
 >>>>>>>>>>>Polling total errors 0
about to poll component #6, mapping #0  device_id 255
 >>>>>>>>>>>Polling total errors 0
about to poll component #0, mapping #0  device_id 255
 >>>>>>>>>>>Polling total errors 0
 >>>>>>>>>>>Polling total errors 0
 >>>>>>>>>>>Polling total errors 0
 >>>>>>>>>>>Polling total errors 0
about to poll component #1, mapping #0  device_id 255
about to poll component #1, mapping #1  device_id 255
 >>>>>>>>>>>Polling total errors 0
about to poll component #1, mapping #2  device_id 255
 >>>>>>>>>>>Polling total errors 0
about to poll component #1, mapping #3  device_id 255
 >>>>>>>>>>>Polling total errors 0
about to poll component #2, mapping #0  device_id 255
 >>>>>>>>>>>Polling total errors 0
about to poll component #2, mapping #1  device_id 255
 >>>>>>>>>>>Polling total errors 0
 >>>>>>>>>>>Polling total errors 0
 >>>>>>>>>>>Polling total errors 0
 >>>>>>>>>>>Polling total errors 0
about to poll component #3, mapping #0  device_id 255
 >>>>>>>>>>>Polling total errors 0
about to poll component #4, mapping #0  device_id 255
04><FF><01><01><00>
[01][41][00][00][00][06][FF][02][1F][AF][00][01]
Waiting for a confirmation...
<01><41><00><00><00><04><FF><02><01><00>
[01][42][00][00][00][06][FF][04][1F][AD][00][01]
Waiting for a confirmation...
<01><42><00><00><00><05><FF><04><02><00><00>
[01][43][00][00][00][06][FF][03][00][00][00][0B]
Waiting for a confirmation...
<01><43><00><00><00><19><FF><03><16><00><00><00><00><00><00><00><00><00><00><00><00><00><00><00><00><00><00><00><00><00><00>
[01][44][00][00][00][06][FF][03][00][6D][00][01]
Waiting for a confirmation...
<01><44><00><00><00><05><FF><03><02><00><00>
[01][45][00][00][00][06][FF][03][04][4C][00][0B]
Waiting for a confirmation...
<01><45><00><00><00><19><FF><03><16><00><00><00><00><00><00><00><00><00><00><00><00><00><00><00><00><00><00><00><00><00><00>
[01][46][00][00][00][06][FF][01][04][56][00][01]
Waiting for a confirmation...
<01><46><00><00><00><04><FF><01><01><00>
[01][47][00][00][00][06][FF][02][04][57][00][01]
Waiting for a confirmation...
<01><47><00><00><00><04><FF><02><01><00>
[01][48][00][00][00][06][FF][04][08][3D][00][01]
Waiting for a confirmation...
<01><48><00><00><00><05><FF><04><02><00><00>
[01][49][00][00][00][06][FF][01][0C][26][00][01]
Waiting for a confirmation...
<01><49><00><00><00><04><FF><01><01><00>
[01][4A][00][00][00][06][FF][02][0C][27][00][01]
Waiting for a confirmation...
<01><4A><00><00><00><04><FF><02><01><00>
[01][4B][00][00][00][06][FF][04][10][0D][00][01]
Waiting for a confirmation...
<01><4B><00><00><00><05><FF><04><02><00><00>
[01][4C][00][00][00][06][FF][03][13][EC][00][0B]
Waiting for a confirmation...
<01><4C><00><00><00><19><FF><03><16><00><00><00><00><00><00><00><00><00><00><00><00><00><00><00><00><00><00><00><00><00><00>
[01][4D][00][00][00][06][FF][01][17][DE][00][01]
Waiting for a confirmation...
<01><4D><00><00><00><04><FF><01><01><00>
[01][4E][00][00][00][06][FF][02][17][DF][00][01]
Waiting for a confirmation...
<01><4E><00><00><00><04><FF><02><01><00>
[01][4F][00][00][00][06][FF][04][1B][C5][00][01]
Waiting for a confirmation...
<01><4F><00><00><00><05><FF><04><02><00><00>
[01][50][00][00][00][06][FF][03][1F][A4][00][0B]
Waiting for a confirmation...
<01><50><00><00><00><19><FF><03><16><00><00><00><00><00><00><00><00><00><00><00><00><00><00><00><00><00><00><00><00><00><00>
[01][51][00][00][00][06][FF][01][1F][AE][00][01]
Waiting for a confirmation...
<01><51><00><00><00><04><FF><01><01><00>
[01][52][00][00][00][06][FF][02][1F][AF][00][01]
Waiting for a confirmation...
<01><52><00><00><00><04><FF><02><01><00>
[01][53][00][00][00][06][FF][04][1F][AD][00][01]
Waiting for a confirmation...
<01><53><00><00><00><05><FF><04><02><00><00>
[01][54][00][00][00][06][FF][03][00][00][00][0B]
Waiting for a confirmation...
<01><54><00><00><00><19><FF><03><16><00><00><00><00><00><00><00><00><00><00><00><00><00><00><00><00><00><00><00><00><00><00>
[01][55][00][00][00][06][FF][03][00][6D][00][01]
Waiting for a confirmation...
<01><55><00><00><00><05><FF><03><02><00><00>
[01][56][00][00][00][06][FF][03][04][4C][00][0B]
Waiting for a confirmation...
<01><56><00><00><00><19><FF><03><16><00><00><00><00><00><00><00><00><00><00><00><00><00><00><00><00><00><00><00><00><00><00>
[01][57][00][00][00][06][FF][01][04][56][00][01]
Waiting for a confirmation...
<01><57><00><00><00><04><FF><01><01><00>
[01][58][00][00][00][06][FF][02][04][57][00][01]
Waiting for a confirmation...
<01><58><00><00><00><04><FF><02><01><00>
[01][59][00][00][00][06][FF][04][08][3D][00][01]
Waiting for a confirmation...
<01><59><00><00><00><05><FF><04><02><00><00>
[01][5A][00][00][00][06][FF][01][0C][26][00][01]
Waiting for a confirmation...
<01><5A><00><00><00><04><FF><01><01><00>
[01][5B][00][00][00][06][FF][02][0C][27][00][01]
Waiting for a confirmation...
<01><5B><00><00><00><04><FF><02><01><00>
[01][5C][00][00][00][06][FF][04][10][0D][00][01]
Waiting for a confirmation...
<01><5C><00><00><00><05><FF><04><02><00><00>
[01][5D][00][00][00][06][FF][03][13][EC][00][0B]
Waiting for a confirmation...
<01><5D><00><00><00><19><FF><03><16><00><00><00><00><00><00><00><00><00><00><00><00><00><00><00><about to poll component #4, mapping #1  device_id 255
 >>>>>>>>>>>Polling total errors 0
about to poll component #4, mapping #2  device_id 255
 >>>>>>>>>>>Polling total errors 0
about to poll component #4, mapping #3  device_id 255
 >>>>>>>>>>>Polling total errors 0
 >>>>>>>>>>>Polling total errors 0
 >>>>>>>>>>>Polling total errors 0
 >>>>>>>>>>>Polling total errors 0
about to poll component #5, mapping #0  device_id 255
about to poll component #5, mapping #1  device_id 255
 >>>>>>>>>>>Polling total errors 0
about to poll component #5, mapping #2  device_id 255
 >>>>>>>>>>>Polling total errors 0
about to poll component #5, mapping #3  device_id 255
 >>>>>>>>>>>Polling total errors 0
about to poll component #6, mapping #0  device_id 255
 >>>>>>>>>>>Polling total errors 0
about to poll component #0, mapping #0  device_id 255
 >>>>>>>>>>>Polling total errors 0
 >>>>>>>>>>>Polling total errors 0
 >>>>>>>>>>>Polling total errors 0
 >>>>>>>>>>>Polling total errors 0
about to poll component #1, mapping #0  device_id 255
about to poll component #1, mapping #1  device_id 255
 >>>>>>>>>>>Polling total errors 0
about to poll component #1, mapping #2  device_id 255
 >>>>>>>>>>>Polling total errors 0
about to poll component #1, mapping #3  device_id 255
 >>>>>>>>>>>Polling total errors 0
 >>>>>>>>>>>Polling total errors 0
 >>>>>>>>>>>Polling total errors 0
 >>>>>>>>>>>Polling total errors 0
about to poll component #2, mapping #0  device_id 255
about to poll component #2, mapping #1  device_id 255
 >>>>>>>>>>>Polling total errors 0
about to poll component #3, mapping #0  device_id 255
 >>>>>>>>>>>Polling total errors 0
 >>>>>>>>>>>Polling total errors 0
 >>>>>>>>>>>Polling total errors 0
 >>>>>>>>>>>Polling total errors 0
about to poll component #4, mapping #0  device_id 255
about to poll component #4, mapping #1  device_id 255
 >>>>>>>>>>>Polling total errors 0
about to poll component #4, mapping #2  device_id 255
 >>>>>>>>>>>Polling total errors 0
about to poll component #4, mapping #3  device_id 255
 >>>>>>>>>>>Polling total errors 0
 >>>>>>>>>>>Polling total errors 0
 >>>>>>>>>>>Polling total errors 0
 >>>>>>>>>>>Polling total errors 0
about to poll component #5, mapping #0  device_id 255
about to poll component #5, mapping #1  device_id 255
 >>>>>>>>>>>Polling total errors 0
about to poll component #5, mapping #2  device_id 255
 >>>>>>>>>>>Polling total errors 0
about to poll component #5, mapping #3  device_id 255
 >>>>>>>>>>>Polling total errors 0
about to poll component #6, mapping #0  device_id 255
 >>>>>>>>>>>Polling total errors 0
about to poll component #0, mapping #0  device_id 255
 >>>>>>>>>>>Polling total errors 0
 >>>>>>>>>>>Polling total errors 0
 >>>>>>>>>>>Polling total errors 0
 >>>>>>>>>>>Polling total errors 0
about to poll component #1, mapping #0  device_id 255
about to poll component #1, mapping #1  device_id 255
 >>>>>>>>>>>Polling total errors 0
about to poll component #1, mapping #2  device_id 255
 >>>>>>>>>>>Polling total errors 0
00><00><00><00><00><00><00>
[01][5E][00][00][00][06][FF][01][17][DE][00][01]
Waiting for a confirmation...
<01><5E><00><00><00><04><FF><01><01><00>
[01][5F][00][00][00][06][FF][02][17][DF][00][01]
Waiting for a confirmation...
<01><5F><00><00><00><04><FF><02><01><00>
[01][60][00][00][00][06][FF][04][1B][C5][00][01]
Waiting for a confirmation...
<01><60><00><00><00><05><FF><04><02><00><00>
[01][61][00][00][00][06][FF][03][1F][A4][00][0B]
Waiting for a confirmation...
<01><61><00><00><00><19><FF><03><16><00><00><00><00><00><00><00><00><00><00><00><00><00><00><00><00><00><00><00><00><00><00>
[01][62][00][00][00][06][FF][01][1F][AE][00][01]
Waiting for a confirmation...
<01><62><00><00><00><04><FF><01><01><00>
[01][63][00][00][00][06][FF][02][1F][AF][00][01]
Waiting for a confirmation...
<01><63><00><00><00><04><FF><02><01><00>
[01][64][00][00][00][06][FF][04][1F][AD][00][01]
Waiting for a confirmation...
<01><64><00><00><00><05><FF><04><02><00><00>
[01][65][00][00][00][06][FF][03][00][00][00][0B]
Waiting for a confirmation...
<01><65><00><00><00><19><FF><03><16><00><00><00><00><00><00><00><00><00><00><00><00><00><00><00><00><00><00><00><00><00><00>
[01][66][00][00][00][06][FF][03][00][6D][00][01]
Waiting for a confirmation...
<01><66><00><00><00><05><FF><03><02><00><00>
[01][67][00][00][00][06][FF][03][04][4C][00][0B]
Waiting for a confirmation...
<01><67><00><00><00><19><FF><03><16><00><00><00><00><00><00><00><00><00><00><00><00><00><00><00><00><00><00><00><00><00><00>
[01][68][00][00][00][06][FF][01][04][56][00][01]
Waiting for a confirmation...
<01><68><00><00><00><04><FF><01><01><00>
[01][69][00][00][00][06][FF][02][04][57][00][01]
Waiting for a confirmation...
<01><69><00><00><00><04><FF><02><01><00>
[01][6A][00][00][00][06][FF][04][08][3D][00][01]
Waiting for a confirmation...
<01><6A><00><00><00><05><FF><04><02><00><00>
[01][6B][00][00][00][06][FF][01][0C][26][00][01]
Waiting for a confirmation...
<01><6B><00><00><00><04><FF><01><01><00>
[01][6C][00][00][00][06][FF][02][0C][27][00][01]
Waiting for a confirmation...
<01><6C><00><00><00><04><FF><02><01><00>
[01][6D][00][00][00][06][FF][04][10][0D][00][01]
Waiting for a confirmation...
<01><6D><00><00><00><05><FF><04><02><00><00>
[01][6E][00][00][00][06][FF][03][13][EC][00][0B]
Waiting for a confirmation...
<01><6E><00><00><00><19><FF><03><16><00><00><00><00><00><00><00><00><00><00><00><00><00><00><00><00><00><00><00><00><00><00>
[01][6F][00][00][00][06][FF][01][17][DE][00][01]
Waiting for a confirmation...
<01><6F><00><00><00><04><FF><01><01><00>
[01][70][00][00][00][06][FF][02][17][DF][00][01]
Waiting for a confirmation...
<01><70><00><00><00><04><FF><02><01><00>
[01][71][00][00][00][06][FF][04][1B][C5][00][01]
Waiting for a confirmation...
<01><71><00><00><00><05><FF><04><02><00><00>
[01][72][00][00][00][06][FF][03][1F][A4][00][0B]
Waiting for a confirmation...
<01><72><00><00><00><19><FF><03><16><00><00><00><00><00><00><00><00><00><00><00><00><00><00><00><00><00><00><00><00><00><00>
[01][73][00][00][00][06][FF][01][1F][AE][00][01]
Waiting for a confirmation...
<01><73><00><00><00><04><FF><01><01><00>
[01][74][00][00][00][06][FF][02][1F][AF][00][01]
Waiting for a confirmation...
<01><74><00><00><00><04><FF><02><01><00>
[01][75][00][00][00][06][FF][04][1F][AD][00][01]
Waiting for a confirmation...
<01><75><00><00><00><05><FF><04><02><00><00>
[01][76][00][00][00][06][FF][03][00][00][00][0B]
Waiting for a confirmation...
<01><76><00><00><00><19><FF><03><16><00><00><00><00><00><00><00><00><00><00><00><00><00><00><00><00><00><00><00><00><00><00>
[01][77][00][00][00][06][FF][03][00][6D][00][01]
Waiting for a confirmation...
<01><77><00><00><00><05><FF><03><02><00><00>
[01][78][00][00][00][06][FF][03][04][4C][00][0B]
Waiting for a confirmation...
<01><78><00><00><00><19><FF><03><16><00><00><00><00><00><00><00><00><00><00><00><00><00><00><00><00><00><00><00><00><00><00>
[01][79][00][00][00][06][FF][01][04][56][00][01]
Waiting for a confirmation...
<01><79><00><00><00><04><FF><01><01><00>
[01][7A][00][00][00][06][FF][02][04][57][00][01]
Waiting for a confirmation...
<01><7A><about to poll component #1, mapping #3  device_id 255
 >>>>>>>>>>>Polling total errors 0
about to poll component #2, mapping #0  device_id 255
 >>>>>>>>>>>Polling total errors 0
about to poll component #2, mapping #1  device_id 255
 >>>>>>>>>>>Polling total errors 0
 >>>>>>>>>>>Polling total errors 0
 >>>>>>>>>>>Polling total errors 0
 >>>>>>>>>>>Polling total errors 0
about to poll component #3, mapping #0  device_id 255
 >>>>>>>>>>>Polling total errors 0
about to poll component #4, mapping #0  device_id 255
about to poll component #4, mapping #1  device_id 255
 >>>>>>>>>>>Polling total errors 0
about to poll component #4, mapping #2  device_id 255
 >>>>>>>>>>>Polling total errors 0
about to poll component #4, mapping #3  device_id 255
 >>>>>>>>>>>Polling total errors 0
 >>>>>>>>>>>Polling total errors 0
 >>>>>>>>>>>Polling total errors 0
 >>>>>>>>>>>Polling total errors 0
about to poll component #5, mapping #0  device_id 255
about to poll component #5, mapping #1  device_id 255
 >>>>>>>>>>>Polling total errors 0
about to poll component #5, mapping #2  device_id 255
 >>>>>>>>>>>Polling total errors 0
about to poll component #5, mapping #3  device_id 255
 >>>>>>>>>>>Polling total errors 0
about to poll component #6, mapping #0  device_id 255
 >>>>>>>>>>>Polling total errors 0
about to poll component #0, mapping #0  device_id 255
 >>>>>>>>>>>Polling total errors 0
 >>>>>>>>>>>Polling total errors 0
 >>>>>>>>>>>Polling total errors 0
 >>>>>>>>>>>Polling total errors 0
about to poll component #1, mapping #0  device_id 255
about to poll component #1, mapping #1  device_id 255
 >>>>>>>>>>>Polling total errors 0
about to poll component #1, mapping #2  device_id 255
 >>>>>>>>>>>Polling total errors 0
about to poll component #1, mapping #3  device_id 255
 >>>>>>>>>>>Polling total errors 0
 >>>>>>>>>>>Polling total errors 0
 >>>>>>>>>>>Polling total errors 0
 >>>>>>>>>>>Polling total errors 0
about to poll component #2, mapping #0  device_id 255
about to poll component #2, mapping #1  device_id 255
 >>>>>>>>>>>Polling total errors 0
about to poll component #3, mapping #0  device_id 255
 >>>>>>>>>>>Polling total errors 0
 >>>>>>>>>>>Polling total errors 0
 >>>>>>>>>>>Polling total errors 0
 >>>>>>>>>>>Polling total errors 0
about to poll component #4, mapping #0  device_id 255
about to poll component #4, mapping #1  device_id 255
 >>>>>>>>>>>Polling total errors 0
about to poll component #4, mapping #2  device_id 255
 >>>>>>>>>>>Polling total errors 0
about to poll component #4, mapping #3  device_id 255
 >>>>>>>>>>>Polling total errors 0
 >>>>>>>>>>>Polling total errors 0
 >>>>>>>>>>>Polling total errors 0
 >>>>>>>>>>>Polling total errors 0
about to poll component #5, mapping #0  device_id 255
about to poll component #5, mapping #1  device_id 255
 >>>>>>>>>>>Polling total errors 0
about to poll component #5, mapping #2  device_id 255
 >>>>>>>>>>>Polling total errors 0
about to poll component #5, mapping #3  device_id 255
 >>>>>>>>>>>Polling total errors 0
about to poll component #6, mapping #0  device_id 255
00><00><00><04><FF><02><01><00>
[01][7B][00][00][00][06][FF][04][08][3D][00][01]
Waiting for a confirmation...
<01><7B><00><00><00><05><FF><04><02><00><00>
[01][7C][00][00][00][06][FF][01][0C][26][00][01]
Waiting for a confirmation...
<01><7C><00><00><00><04><FF><01><01><00>
[01][7D][00][00][00][06][FF][02][0C][27][00][01]
Waiting for a confirmation...
<01><7D><00><00><00><04><FF><02><01><00>
[01][7E][00][00][00][06][FF][04][10][0D][00][01]
Waiting for a confirmation...
<01><7E><00><00><00><05><FF><04><02><00><00>
[01][7F][00][00][00][06][FF][03][13][EC][00][0B]
Waiting for a confirmation...
<01><7F><00><00><00><19><FF><03><16><00><00><00><00><00><00><00><00><00><00><00><00><00><00><00><00><00><00><00><00><00><00>
[01][80][00][00][00][06][FF][01][17][DE][00][01]
Waiting for a confirmation...
<01><80><00><00><00><04><FF><01><01><00>
[01][81][00][00][00][06][FF][02][17][DF][00][01]
Waiting for a confirmation...
<01><81><00><00><00><04><FF><02><01><00>
[01][82][00][00][00][06][FF][04][1B][C5][00][01]
Waiting for a confirmation...
<01><82><00><00><00><05><FF><04><02><00><00>
[01][83][00][00][00][06][FF][03][1F][A4][00][0B]
Waiting for a confirmation...
<01><83><00><00><00><19><FF><03><16><00><00><00><00><00><00><00><00><00><00><00><00><00><00><00><00><00><00><00><00><00><00>
[01][84][00][00][00][06][FF][01][1F][AE][00][01]
Waiting for a confirmation...
<01><84><00><00><00><04><FF><01><01><00>
[01][85][00][00][00][06][FF][02][1F][AF][00][01]
Waiting for a confirmation...
<01><85><00><00><00><04><FF><02><01><00>
[01][86][00][00][00][06][FF][04][1F][AD][00][01]
Waiting for a confirmation...
<01><86><00><00><00><05><FF><04><02><00><00>
[01][87][00][00][00][06][FF][03][00][00][00][0B]
Waiting for a confirmation...
<01><87><00><00><00><19><FF><03><16><00><00><00><00><00><00><00><00><00><00><00><00><00><00><00><00><00><00><00><00><00><00>
[01][88][00][00][00][06][FF][03][00][6D][00][01]
Waiting for a confirmation...
<01><88><00><00><00><05><FF><03><02><00><00>
[01][89][00][00][00][06][FF][03][04][4C][00][0B]
Waiting for a confirmation...
<01><89><00><00><00><19><FF><03><16><00><00><00><00><00><00><00><00><00><00><00><00><00><00><00><00><00><00><00><00><00><00>
[01][8A][00][00][00][06][FF][01][04][56][00][01]
Waiting for a confirmation...
<01><8A><00><00><00><04><FF><01><01><00>
[01][8B][00][00][00][06][FF][02][04][57][00][01]
Waiting for a confirmation...
<01><8B><00><00><00><04><FF><02><01><00>
[01][8C][00][00][00][06][FF][04][08][3D][00][01]
Waiting for a confirmation...
<01><8C><00><00><00><05><FF><04><02><00><00>
[01][8D][00][00][00][06][FF][01][0C][26][00][01]
Waiting for a confirmation...
<01><8D><00><00><00><04><FF><01><01><00>
[01][8E][00][00][00][06][FF][02][0C][27][00][01]
Waiting for a confirmation...
<01><8E><00><00><00><04><FF><02><01><00>
[01][8F][00][00][00][06][FF][04][10][0D][00][01]
Waiting for a confirmation...
<01><8F><00><00><00><05><FF><04><02><00><00>
[01][90][00][00][00][06][FF][03][13][EC][00][0B]
Waiting for a confirmation...
<01><90><00><00><00><19><FF><03><16><00><00><00><00><00><00><00><00><00><00><00><00><00><00><00><00><00><00><00><00><00><00>
[01][91][00][00][00][06][FF][01][17][DE][00][01]
Waiting for a confirmation...
<01><91><00><00><00><04><FF><01><01><00>
[01][92][00][00][00][06][FF][02][17][DF][00][01]
Waiting for a confirmation...
<01><92><00><00><00><04><FF><02><01><00>
[01][93][00][00][00][06][FF][04][1B][C5][00][01]
Waiting for a confirmation...
<01><93><00><00><00><05><FF><04><02><00><00>
[01][94][00][00][00][06][FF][03][1F][A4][00][0B]
Waiting for a confirmation...
<01><94><00><00><00><19><FF><03><16><00><00><00><00><00><00><00><00><00><00><00><00><00><00><00><00><00><00><00><00><00><00>
[01][95][00][00][00][06][FF][01][1F][AE][00][01]
Waiting for a confirmation...
<01><95><00><00><00><04><FF><01><01><00>
[01][96][00][00][00][06][FF][02][1F][AF][00][01]
Waiting for a confirmation...
<01><96><00><00><00><04><FF><02><01><00>
[01][97][00][00][00][06][FF][04][1F][AD][00][01]
Waiting for a confirmation...
<01><97><00><00><00><05><FF><04><02><00><00>
[01][98][00][00][00][06][FF][03][00][00][00] >>>>>>>>>>>Polling total errors 0
about to poll component #0, mapping #0  device_id 255
 >>>>>>>>>>>Polling total errors 0
 >>>>>>>>>>>Polling total errors 0
 >>>>>>>>>>>Polling total errors 0
 >>>>>>>>>>>Polling total errors 0
about to poll component #1, mapping #0  device_id 255
